13:52:22 - Sent request Exp_Address_1 to address 1: 01 03 10 28 00 02 40 C3
13:52:22 - Address 1, Request Exp_Address_1, Value: 0
13:52:23 - Sent request Ia_Address_1 to address 1: 01 03 20 0C 00 02 0F C8
13:52:23 - Address 1, Request Ia_Address_1, Value: 0.912
13:52:23 - Sent request Ib_Address_1 to address 1: 01 03 20 0E 00 02 AE 08
13:52:23 - Address 1, Request Ib_Address_1, Value: 0.788
13:52:24 - Sent request Ic_Address_1 to address 1: 01 03 20 10 00 02 CE 0E
13:52:24 - Address 1, Request Ic_Address_1, Value: 0.68
13:52:24 - Sent request Imp_Address_1 to address 1: 01 03 10 1E 00 02 A0 CD
13:52:25 - Address 1, Request Imp_Address_1, Value: 1809.6001
13:52:25 - Sent request Pa_Address_1 to address 1: 01 03 20 14 00 02 8F CF
13:52:25 - Unknown request type for Pa_Address_1 at address 1.
13:52:26 - Sent request Pb_Address_1 to address 1: 01 03 20 16 00 02 2E 0F
13:52:26 - Unknown request type for Pb_Address_1 at address 1.
13:52:26 - Sent request Pc_Address_1 to address 1: 01 03 20 18 00 02 4F CC
13:52:26 - Unknown request type for Pc_Address_1 at address 1.
13:52:27 - Sent request Pt_Address_1 to address 1: 01 03 20 12 00 02 6F CE
13:52:27 - Unknown request type for Pt_Address_1 at address 1.
13:52:27 - Timeout waiting for response for request Exp_Address_1
13:52:27 - Sent request Ua_Address_1 to address 1: 01 03 20 06 00 02 2F CA
13:52:27 - Unknown request type for Ua_Address_1 at address 1.
13:52:28 - Sent request Ub_Address_1 to address 1: 01 03 20 08 00 02 4E 09
13:52:28 - Timeout waiting for response for request Ia_Address_1
13:52:28 - Unknown request type for Ub_Address_1 at address 1.
13:52:28 - Sent request Uc_Address_1 to address 1: 01 03 20 0A 00 02 EF C9
13:52:28 - Timeout waiting for response for request Ib_Address_1
13:52:28 - Address 1, Request Uc_Address_1, Value: 4416
13:52:29 - Timeout waiting for response for request Ic_Address_1
13:52:29 - Timeout waiting for response for request Imp_Address_1
13:52:30 - Timeout waiting for response for request Pa_Address_1
13:52:30 - Timeout waiting for response for request Pb_Address_1
13:52:31 - Timeout waiting for response for request Pc_Address_1
13:52:32 - Timeout waiting for response for request Pt_Address_1
13:52:32 - Timeout waiting for response for request Ua_Address_1
13:52:32 - Sent request Exp_Address_2 to address 2: 02 03 10 28 00 02 40 F0
13:52:33 - Address 2, Request Exp_Address_2, Value: 0
13:52:33 - Timeout waiting for response for request Ub_Address_1
13:52:33 - Sent request Ia_Address_2 to address 2: 02 03 20 0C 00 02 0F FB
13:52:33 - Address 2, Request Ia_Address_2, Value: 0.908
13:52:33 - Timeout waiting for response for request Uc_Address_1
13:52:34 - Sent request Ib_Address_2 to address 2: 02 03 20 0E 00 02 AE 3B
13:52:34 - Address 2, Request Ib_Address_2, Value: 0.885
13:52:34 - Sent request Ic_Address_2 to address 2: 02 03 20 10 00 02 CE 3D
13:52:34 - Address 2, Request Ic_Address_2, Value: 0.904
13:52:35 - Sent request Imp_Address_2 to address 2: 02 03 10 1E 00 02 A0 FE
13:52:35 - Address 2, Request Imp_Address_2, Value: 2002.6
13:52:35 - Sent request Pa_Address_2 to address 2: 02 03 20 14 00 02 8F FC
13:52:35 - Unknown request type for Pa_Address_2 at address 2.
13:52:36 - Sent request Pb_Address_2 to address 2: 02 03 20 16 00 02 2E 3C
13:52:36 - Unknown request type for Pb_Address_2 at address 2.
13:52:36 - Sent request Pc_Address_2 to address 2: 02 03 20 18 00 02 4F FF
13:52:37 - Unknown request type for Pc_Address_2 at address 2.
13:52:37 - Sent request Pt_Address_2 to address 2: 02 03 20 12 00 02 6F FD
13:52:37 - Unknown request type for Pt_Address_2 at address 2.
13:52:37 - Timeout waiting for response for request Exp_Address_2
13:52:37 - Sent request Ua_Address_2 to address 2: 02 03 20 06 00 02 2F F9
13:52:38 - Unknown request type for Ua_Address_2 at address 2.
13:52:38 - Timeout waiting for response for request Ia_Address_2
13:52:38 - Sent request Ub_Address_2 to address 2: 02 03 20 08 00 02 4E 3A
13:52:38 - Unknown request type for Ub_Address_2 at address 2.
13:52:38 - Timeout waiting for response for request Ib_Address_2
13:52:39 - Sent request Uc_Address_2 to address 2: 02 03 20 0A 00 02 EF FA
13:52:39 - Address 2, Request Uc_Address_2, Value: 4398
13:52:39 - Timeout waiting for response for request Ic_Address_2
13:52:40 - Timeout waiting for response for request Imp_Address_2
13:52:40 - Timeout waiting for response for request Pa_Address_2
13:52:41 - Timeout waiting for response for request Pb_Address_2
13:52:41 - Timeout waiting for response for request Pc_Address_2
13:52:42 - Timeout waiting for response for request Pt_Address_2
13:52:42 - Timeout waiting for response for request Ua_Address_2
13:52:43 - Sent request Exp_Address_3 to address 3: 03 03 10 28 00 02 41 21
13:52:43 - Address 3, Request Exp_Address_3, Value: 1802.2
13:52:43 - Timeout waiting for response for request Ub_Address_2
13:52:43 - Sent request Ia_Address_3 to address 3: 03 03 20 0C 00 02 0E 2A
13:52:43 - Address 3, Request Ia_Address_3, Value: 1.078
13:52:44 - Timeout waiting for response for request Uc_Address_2
13:52:44 - Sent request Ib_Address_3 to address 3: 03 03 20 0E 00 02 AF EA
13:52:44 - Address 3, Request Ib_Address_3, Value: 1.067
13:52:44 - Sent request Ic_Address_3 to address 3: 03 03 20 10 00 02 CF EC
13:52:45 - Address 3, Request Ic_Address_3, Value: 1.093
13:52:45 - Sent request Imp_Address_3 to address 3: 03 03 10 1E 00 02 A1 2F
13:52:45 - Address 3, Request Imp_Address_3, Value: 1.2
13:52:45 - Sent request Pa_Address_3 to address 3: 03 03 20 14 00 02 8E 2D
13:52:46 - Unknown request type for Pa_Address_3 at address 3.
13:52:46 - Sent request Pb_Address_3 to address 3: 03 03 20 16 00 02 2F ED
13:52:46 - Unknown request type for Pb_Address_3 at address 3.
13:52:47 - Sent request Pc_Address_3 to address 3: 03 03 20 18 00 02 4E 2E
13:52:47 - Unknown request type for Pc_Address_3 at address 3.
13:52:47 - Sent request Pt_Address_3 to address 3: 03 03 20 12 00 02 6E 2C
13:52:47 - Unknown request type for Pt_Address_3 at address 3.
13:52:48 - Sent request Ua_Address_3 to address 3: 03 03 20 06 00 02 2E 28
13:52:48 - Timeout waiting for response for request Exp_Address_3
13:52:48 - Unknown request type for Ua_Address_3 at address 3.
13:52:48 - Sent request Ub_Address_3 to address 3: 03 03 20 08 00 02 4F EB
13:52:48 - Timeout waiting for response for request Ia_Address_3
13:52:48 - Unknown request type for Ub_Address_3 at address 3.
13:52:49 - Timeout waiting for response for request Ib_Address_3
13:52:49 - Sent request Uc_Address_3 to address 3: 03 03 20 0A 00 02 EE 2B
13:52:49 - Address 3, Request Uc_Address_3, Value: 4374
13:52:49 - Timeout waiting for response for request Ic_Address_3
13:52:50 - Timeout waiting for response for request Imp_Address_3
13:52:50 - Timeout waiting for response for request Pa_Address_3
13:52:51 - Timeout waiting for response for request Pb_Address_3
13:52:52 - Timeout waiting for response for request Pc_Address_3
13:52:52 - Timeout waiting for response for request Pt_Address_3
13:52:53 - Timeout waiting for response for request Ua_Address_3
13:52:53 - Sent request Exp_Address_4 to address 4: 04 03 10 28 00 02 40 96
13:52:53 - Address 4, Request Exp_Address_4, Value: 2.2
13:52:53 - Timeout waiting for response for request Ub_Address_3
13:52:53 - Sent request Ia_Address_4 to address 4: 04 03 20 0C 00 02 0F 9D
13:52:54 - Address 4, Request Ia_Address_4, Value: 0.394
13:52:54 - Timeout waiting for response for request Uc_Address_3
13:52:54 - Sent request Ib_Address_4 to address 4: 04 03 20 0E 00 02 AE 5D
13:52:54 - Address 4, Request Ib_Address_4, Value: 0.25
13:52:55 - Sent request Ic_Address_4 to address 4: 04 03 20 10 00 02 CE 5B
13:52:55 - Address 4, Request Ic_Address_4, Value: 0.365
13:52:58 - Timeout waiting for response for request Exp_Address_4
13:52:58 - Sent request Imp_Address_4 to address 4: 04 03 10 1E 00 02 A0 98
13:52:58 - Address 4, Request Imp_Address_4, Value: 1151.4
13:53:01 - Timeout waiting for response for request Ic_Address_4
13:53:01 - Sent request Pa_Address_4 to address 4: 04 03 20 14 00 02 8F 9A
13:53:01 - Timeout waiting for response for request Ib_Address_4
13:53:01 - Timeout waiting for response for request Ia_Address_4
13:53:01 - Unknown request type for Pa_Address_4 at address 4.
13:53:01 - Sent request Pb_Address_4 to address 4: 04 03 20 16 00 02 2E 5A
13:53:01 - Unknown request type for Pb_Address_4 at address 4.
13:53:02 - Sent request Pc_Address_4 to address 4: 04 03 20 18 00 02 4F 99
13:53:02 - Unknown request type for Pc_Address_4 at address 4.
13:53:02 - Sent request Pt_Address_4 to address 4: 04 03 20 12 00 02 6F 9B
13:53:03 - Unknown request type for Pt_Address_4 at address 4.
13:53:03 - Sent request Ua_Address_4 to address 4: 04 03 20 06 00 02 2F 9F
13:53:03 - Timeout waiting for response for request Imp_Address_4
13:53:03 - Unknown request type for Ua_Address_4 at address 4.
13:53:04 - Sent request Ub_Address_4 to address 4: 04 03 20 08 00 02 4E 5C
13:53:04 - Unknown request type for Ub_Address_4 at address 4.
13:53:04 - Sent request Uc_Address_4 to address 4: 04 03 20 0A 00 02 EF 9C
13:53:04 - Address 4, Request Uc_Address_4, Value: 4566
13:53:07 - Timeout waiting for response for request Pb_Address_4
13:53:07 - Timeout waiting for response for request Pa_Address_4
13:53:07 - Timeout waiting for response for request Pc_Address_4
13:53:07 - Timeout waiting for response for request Pt_Address_4
13:53:08 - Timeout waiting for response for request Ua_Address_4
13:53:09 - Timeout waiting for response for request Ub_Address_4
13:53:09 - Timeout waiting for response for request Uc_Address_4
13:53:10 - Sent request Exp_Address_5 to address 5: 05 03 10 28 00 02 41 47
13:53:10 - Address 5, Request Exp_Address_5, Value: 0
13:53:13 - Sent request Ia_Address_5 to address 5: 05 03 20 0C 00 02 0E 4C
13:53:13 - Address 5, Request Ia_Address_5, Value: 0.409
13:53:15 - Timeout waiting for response for request Exp_Address_5
13:53:15 - Sent request Ib_Address_5 to address 5: 05 03 20 0E 00 02 AF 8C
13:53:15 - Address 5, Request Ib_Address_5, Value: 0.497
13:53:16 - Sent request Ic_Address_5 to address 5: 05 03 20 10 00 02 CF 8A
13:53:16 - Address 5, Request Ic_Address_5, Value: 0.482
13:53:16 - Sent request Imp_Address_5 to address 5: 05 03 10 1E 00 02 A1 49
13:53:17 - Address 5, Request Imp_Address_5, Value: 1183.7999
13:53:17 - Sent request Pa_Address_5 to address 5: 05 03 20 14 00 02 8E 4B
13:53:17 - Unknown request type for Pa_Address_5 at address 5.
13:53:18 - Sent request Pb_Address_5 to address 5: 05 03 20 16 00 02 2F 8B
13:53:18 - Timeout waiting for response for request Ia_Address_5
13:53:18 - Unknown request type for Pb_Address_5 at address 5.
13:53:18 - Sent request Pc_Address_5 to address 5: 05 03 20 18 00 02 4E 48
13:53:18 - Unknown request type for Pc_Address_5 at address 5.
13:53:19 - Sent request Pt_Address_5 to address 5: 05 03 20 12 00 02 6E 4A
13:53:19 - Unknown request type for Pt_Address_5 at address 5.
13:53:19 - Sent request Ua_Address_5 to address 5: 05 03 20 06 00 02 2E 4E
13:53:19 - Unknown request type for Ua_Address_5 at address 5.
13:53:20 - Sent request Ub_Address_5 to address 5: 05 03 20 08 00 02 4F 8D
13:53:20 - Unknown request type for Ub_Address_5 at address 5.
13:53:20 - Timeout waiting for response for request Ib_Address_5
13:53:20 - Sent request Uc_Address_5 to address 5: 05 03 20 0A 00 02 EE 4D
13:53:20 - Address 5, Request Uc_Address_5, Value: 4410
13:53:21 - Timeout waiting for response for request Ic_Address_5
13:53:21 - Timeout waiting for response for request Imp_Address_5
13:53:22 - Timeout waiting for response for request Pa_Address_5
13:53:22 - Timeout waiting for response for request Pb_Address_5
13:53:23 - Timeout waiting for response for request Pc_Address_5
13:53:24 - Timeout waiting for response for request Pt_Address_5
13:53:24 - Timeout waiting for response for request Ua_Address_5
13:53:24 - Sent request Exp_Address_6 to address 6: 06 03 10 28 00 02 41 74
13:53:25 - Address 6, Request Exp_Address_6, Value: 0
13:53:25 - Timeout waiting for response for request Ub_Address_5
13:53:25 - Sent request Ia_Address_6 to address 6: 06 03 20 0C 00 02 0E 7F
13:53:25 - Address 6, Request Ia_Address_6, Value: 0.858
13:53:25 - Timeout waiting for response for request Uc_Address_5
13:53:26 - Sent request Ib_Address_6 to address 6: 06 03 20 0E 00 02 AF BF
13:53:26 - Address 6, Request Ib_Address_6, Value: 1.182
13:53:26 - Sent request Ic_Address_6 to address 6: 06 03 20 10 00 02 CF B9
13:53:26 - Address 6, Request Ic_Address_6, Value: 1.225
13:53:27 - Sent request Imp_Address_6 to address 6: 06 03 10 1E 00 02 A1 7A
13:53:27 - Address 6, Request Imp_Address_6, Value: 3150.7998
13:53:27 - Sent request Pa_Address_6 to address 6: 06 03 20 14 00 02 8E 78
13:53:27 - Unknown request type for Pa_Address_6 at address 6.
13:53:28 - Sent request Pb_Address_6 to address 6: 06 03 20 16 00 02 2F B8
13:53:28 - Unknown request type for Pb_Address_6 at address 6.
13:53:28 - Sent request Pc_Address_6 to address 6: 06 03 20 18 00 02 4E 7B
13:53:29 - Unknown request type for Pc_Address_6 at address 6.
13:53:29 - Sent request Pt_Address_6 to address 6: 06 03 20 12 00 02 6E 79
13:53:29 - Unknown request type for Pt_Address_6 at address 6.
13:53:29 - Timeout waiting for response for request Exp_Address_6
13:53:29 - Sent request Ua_Address_6 to address 6: 06 03 20 06 00 02 2E 7D
13:53:30 - Unknown request type for Ua_Address_6 at address 6.
13:53:30 - Timeout waiting for response for request Ia_Address_6
13:53:30 - Sent request Ub_Address_6 to address 6: 06 03 20 08 00 02 4F BE
13:53:30 - Unknown request type for Ub_Address_6 at address 6.
13:53:30 - Timeout waiting for response for request Ib_Address_6
13:53:31 - Sent request Uc_Address_6 to address 6: 06 03 20 0A 00 02 EE 7E
13:53:31 - Address 6, Request Uc_Address_6, Value: 4370
13:53:31 - Timeout waiting for response for request Ic_Address_6
13:53:32 - Timeout waiting for response for request Imp_Address_6
13:53:32 - Timeout waiting for response for request Pa_Address_6
13:53:33 - Timeout waiting for response for request Pb_Address_6
13:53:33 - Timeout waiting for response for request Pc_Address_6
13:53:34 - Timeout waiting for response for request Pt_Address_6
13:53:34 - Timeout waiting for response for request Ua_Address_6
13:53:35 - Sent request Exp_Address_7 to address 7: 07 03 10 28 00 02 40 A5
13:53:35 - Timeout waiting for response for request Ub_Address_6
13:53:35 - Sent request Ia_Address_7 to address 7: 07 03 20 0C 00 02 0F AE
13:53:36 - Timeout waiting for response for request Uc_Address_6
13:53:36 - Sent request Ib_Address_7 to address 7: 07 03 20 0E 00 02 AE 6E
13:53:36 - Sent request Ic_Address_7 to address 7: 07 03 20 10 00 02 CE 68
13:53:37 - Sent request Imp_Address_7 to address 7: 07 03 10 1E 00 02 A0 AB
13:53:37 - Sent request Pa_Address_7 to address 7: 07 03 20 14 00 02 8F A9
13:53:38 - Sent request Pb_Address_7 to address 7: 07 03 20 16 00 02 2E 69
13:53:39 - Sent request Pc_Address_7 to address 7: 07 03 20 18 00 02 4F AA
13:53:39 - Sent request Pt_Address_7 to address 7: 07 03 20 12 00 02 6F A8
13:53:40 - Timeout waiting for response for request Exp_Address_7
13:53:40 - Sent request Ua_Address_7 to address 7: 07 03 20 06 00 02 2F AC
13:53:40 - Timeout waiting for response for request Ia_Address_7
13:53:40 - Sent request Ub_Address_7 to address 7: 07 03 20 08 00 02 4E 6F
13:53:41 - Timeout waiting for response for request Ib_Address_7
13:53:41 - Sent request Uc_Address_7 to address 7: 07 03 20 0A 00 02 EF AF
13:53:41 - Timeout waiting for response for request Ic_Address_7
13:53:42 - Timeout waiting for response for request Imp_Address_7
13:53:42 - Timeout waiting for response for request Pa_Address_7
13:53:43 - Timeout waiting for response for request Pb_Address_7
13:53:43 - Timeout waiting for response for request Pc_Address_7
13:53:44 - Timeout waiting for response for request Pt_Address_7
13:53:45 - Timeout waiting for response for request Ua_Address_7
13:53:45 - Sent request Exp_Address_8 to address 8: 08 03 10 28 00 02 40 5A
13:53:45 - Timeout waiting for response for request Ub_Address_7
13:53:45 - Sent request Ia_Address_8 to address 8: 08 03 20 0C 00 02 0F 51
13:53:46 - Timeout waiting for response for request Uc_Address_7
13:53:46 - Sent request Ib_Address_8 to address 8: 08 03 20 0E 00 02 AE 91
13:53:47 - Sent request Ic_Address_8 to address 8: 08 03 20 10 00 02 CE 97
13:53:47 - Sent request Imp_Address_8 to address 8: 08 03 10 1E 00 02 A0 54
13:53:48 - Sent request Pa_Address_8 to address 8: 08 03 20 14 00 02 8F 56
13:53:48 - Sent request Pb_Address_8 to address 8: 08 03 20 16 00 02 2E 96
13:53:49 - Sent request Pc_Address_8 to address 8: 08 03 20 18 00 02 4F 55
13:53:49 - Sent request Pt_Address_8 to address 8: 08 03 20 12 00 02 6F 57
13:53:50 - Timeout waiting for response for request Exp_Address_8
13:53:50 - Sent request Ua_Address_8 to address 8: 08 03 20 06 00 02 2F 53
13:53:50 - Timeout waiting for response for request Ia_Address_8
13:53:50 - Sent request Ub_Address_8 to address 8: 08 03 20 08 00 02 4E 90
13:53:51 - Timeout waiting for response for request Ib_Address_8
13:53:51 - Sent request Uc_Address_8 to address 8: 08 03 20 0A 00 02 EF 50
13:53:51 - Timeout waiting for response for request Ic_Address_8
13:53:52 - Timeout waiting for response for request Imp_Address_8
13:53:53 - Timeout waiting for response for request Pa_Address_8
13:53:53 - Timeout waiting for response for request Pb_Address_8
13:53:54 - Timeout waiting for response for request Pc_Address_8
13:53:54 - Timeout waiting for response for request Pt_Address_8
13:53:55 - Timeout waiting for response for request Ua_Address_8
13:53:55 - Sent request Exp_Address_9 to address 9: 09 03 10 28 00 02 41 8B
13:53:55 - Timeout waiting for response for request Ub_Address_8
13:53:56 - Sent request Ia_Address_9 to address 9: 09 03 20 0C 00 02 0E 80
13:53:56 - Timeout waiting for response for request Uc_Address_8
13:53:56 - Sent request Ib_Address_9 to address 9: 09 03 20 0E 00 02 AF 40
13:53:57 - Sent request Ic_Address_9 to address 9: 09 03 20 10 00 02 CF 46
13:53:57 - Sent request Imp_Address_9 to address 9: 09 03 10 1E 00 02 A1 85
13:53:58 - Sent request Pa_Address_9 to address 9: 09 03 20 14 00 02 8E 87
13:53:58 - Sent request Pb_Address_9 to address 9: 09 03 20 16 00 02 2F 47
13:53:59 - Sent request Pc_Address_9 to address 9: 09 03 20 18 00 02 4E 84
13:54:00 - Sent request Pt_Address_9 to address 9: 09 03 20 12 00 02 6E 86
13:54:00 - Timeout waiting for response for request Exp_Address_9
13:54:00 - Sent request Ua_Address_9 to address 9: 09 03 20 06 00 02 2E 82
13:54:01 - Timeout waiting for response for request Ia_Address_9
13:54:01 - Sent request Ub_Address_9 to address 9: 09 03 20 08 00 02 4F 41
13:54:01 - Timeout waiting for response for request Ib_Address_9
13:54:01 - Sent request Uc_Address_9 to address 9: 09 03 20 0A 00 02 EE 81
13:54:02 - Timeout waiting for response for request Ic_Address_9
13:54:02 - Timeout waiting for response for request Imp_Address_9
13:54:03 - Timeout waiting for response for request Pa_Address_9
13:54:03 - Timeout waiting for response for request Pb_Address_9
13:54:04 - Timeout waiting for response for request Pc_Address_9
13:54:04 - Timeout waiting for response for request Pt_Address_9
13:54:05 - Timeout waiting for response for request Ua_Address_9
13:54:05 - Sent request Exp_Address_10 to address 10: 0A 03 10 28 00 02 41 B8
13:54:05 - Address 10, Request Exp_Address_10, Value: 398.4
13:55:35 - Timeout waiting for response for request Ub_Address_9
13:55:35 - Sent request Ia_Address_10 to address 10: 0A 03 20 0C 00 02 0E B3
13:55:35 - Timeout waiting for response for request Exp_Address_10
13:55:35 - Timeout waiting for response for request Uc_Address_9
13:55:35 - Address 10, Request Ia_Address_10, Value: 0.554
13:55:37 - Sent request Ib_Address_10 to address 10: 0A 03 20 0E 00 02 AF 73
13:55:37 - Address 10, Request Ib_Address_10, Value: 0.542
13:55:38 - Sent request Ic_Address_10 to address 10: 0A 03 20 10 00 02 CF 75
13:55:38 - Address 10, Request Ic_Address_10, Value: 0.476
13:55:39 - Sent request Imp_Address_10 to address 10: 0A 03 10 1E 00 02 A1 B6
13:55:39 - Address 10, Request Imp_Address_10, Value: 1094.4
13:55:40 - Sent request Pa_Address_10 to address 10: 0A 03 20 14 00 02 8E B4
13:55:40 - Timeout waiting for response for request Ia_Address_10
13:55:40 - Unknown request type for Pa_Address_10 at address 10.
13:55:41 - Sent request Pb_Address_10 to address 10: 0A 03 20 16 00 02 2F 74
13:55:41 - Unknown request type for Pb_Address_10 at address 10.
13:55:41 - Sent request Pc_Address_10 to address 10: 0A 03 20 18 00 02 4E B7
13:55:41 - Unknown request type for Pc_Address_10 at address 10.
13:55:42 - Sent request Pt_Address_10 to address 10: 0A 03 20 12 00 02 6E B5
13:55:42 - Unknown request type for Pt_Address_10 at address 10.
13:55:42 - Timeout waiting for response for request Ib_Address_10
13:55:42 - Sent request Ua_Address_10 to address 10: 0A 03 20 06 00 02 2E B1
13:55:42 - Unknown request type for Ua_Address_10 at address 10.
13:55:43 - Sent request Ub_Address_10 to address 10: 0A 03 20 08 00 02 4F 72
13:55:43 - Unknown request type for Ub_Address_10 at address 10.
13:55:43 - Timeout waiting for response for request Ic_Address_10
13:55:43 - Sent request Uc_Address_10 to address 10: 0A 03 20 0A 00 02 EE B2
13:55:44 - Address 10, Request Uc_Address_10, Value: 4666
13:55:47 - Timeout waiting for response for request Pc_Address_10
13:55:47 - Timeout waiting for response for request Pb_Address_10
13:55:47 - Timeout waiting for response for request Pa_Address_10
13:55:47 - Timeout waiting for response for request Imp_Address_10
13:55:47 - Timeout waiting for response for request Pt_Address_10
13:55:47 - Timeout waiting for response for request Ua_Address_10
13:55:48 - Timeout waiting for response for request Ub_Address_10
13:55:48 - Timeout waiting for response for request Uc_Address_10
13:55:50 - Sent request Exp_Address_11 to address 11: 0B 03 10 28 00 02 40 69
13:55:51 - Sent request Ia_Address_11 to address 11: 0B 03 20 0C 00 02 0F 62
13:55:51 - Sent request Ib_Address_11 to address 11: 0B 03 20 0E 00 02 AE A2
13:55:52 - Sent request Ic_Address_11 to address 11: 0B 03 20 10 00 02 CE A4
13:55:52 - Sent request Imp_Address_11 to address 11: 0B 03 10 1E 00 02 A0 67
13:55:53 - Sent request Pa_Address_11 to address 11: 0B 03 20 14 00 02 8F 65
13:55:53 - Sent request Pb_Address_11 to address 11: 0B 03 20 16 00 02 2E A5
13:55:54 - Sent request Pc_Address_11 to address 11: 0B 03 20 18 00 02 4F 66
13:55:54 - Sent request Pt_Address_11 to address 11: 0B 03 20 12 00 02 6F 64
13:55:55 - Timeout waiting for response for request Exp_Address_11
13:55:55 - Sent request Ua_Address_11 to address 11: 0B 03 20 06 00 02 2F 60
13:55:55 - Timeout waiting for response for request Ia_Address_11
13:55:56 - Sent request Ub_Address_11 to address 11: 0B 03 20 08 00 02 4E A3
13:55:56 - Timeout waiting for response for request Ib_Address_11
13:55:56 - Sent request Uc_Address_11 to address 11: 0B 03 20 0A 00 02 EF 63
13:55:57 - Timeout waiting for response for request Ic_Address_11
13:55:57 - Timeout waiting for response for request Imp_Address_11
13:55:58 - Timeout waiting for response for request Pa_Address_11
13:55:58 - Timeout waiting for response for request Pb_Address_11
13:55:59 - Timeout waiting for response for request Pc_Address_11
13:55:59 - Timeout waiting for response for request Pt_Address_11
13:56:00 - Timeout waiting for response for request Ua_Address_11
13:56:00 - Sent request Exp_Address_12 to address 12: 0C 03 10 28 00 02 41 DE
13:56:00 - Timeout waiting for response for request Ub_Address_11
13:56:01 - Sent request Ia_Address_12 to address 12: 0C 03 20 0C 00 02 0E D5
13:56:01 - Timeout waiting for response for request Uc_Address_11
13:56:01 - Sent request Ib_Address_12 to address 12: 0C 03 20 0E 00 02 AF 15
13:56:02 - Sent request Ic_Address_12 to address 12: 0C 03 20 10 00 02 CF 13
13:56:02 - Sent request Imp_Address_12 to address 12: 0C 03 10 1E 00 02 A1 D0
13:56:03 - Sent request Pa_Address_12 to address 12: 0C 03 20 14 00 02 8E D2
13:56:04 - Sent request Pb_Address_12 to address 12: 0C 03 20 16 00 02 2F 12
13:56:04 - Sent request Pc_Address_12 to address 12: 0C 03 20 18 00 02 4E D1
13:56:05 - Sent request Pt_Address_12 to address 12: 0C 03 20 12 00 02 6E D3
13:56:05 - Timeout waiting for response for request Exp_Address_12
13:56:05 - Sent request Ua_Address_12 to address 12: 0C 03 20 06 00 02 2E D7
13:56:06 - Timeout waiting for response for request Ia_Address_12
13:56:06 - Sent request Ub_Address_12 to address 12: 0C 03 20 08 00 02 4F 14
13:56:06 - Timeout waiting for response for request Ib_Address_12
13:56:06 - Sent request Uc_Address_12 to address 12: 0C 03 20 0A 00 02 EE D4
13:56:07 - Timeout waiting for response for request Ic_Address_12
13:56:07 - Timeout waiting for response for request Imp_Address_12
13:56:08 - Timeout waiting for response for request Pa_Address_12
13:56:08 - Timeout waiting for response for request Pb_Address_12
13:56:09 - Timeout waiting for response for request Pc_Address_12
13:56:10 - Timeout waiting for response for request Pt_Address_12
13:56:10 - Timeout waiting for response for request Ua_Address_12
13:56:11 - Timeout waiting for response for request Ub_Address_12
13:56:11 - Sent request Exp_Address_1 to address 1: 01 03 10 28 00 02 40 C3
13:56:11 - Address 1, Request Exp_Address_1, Value: 0
13:59:09 - Sent request Exp_Address_1 to address 1: 01 03 10 28 00 02 40 C3
13:59:09 - Address 1, Request Exp_Address_1, Value: 0
13:59:12 - Sent request Ia_Address_1 to address 1: 01 03 20 0C 00 02 0F C8
13:59:13 - Address 1, Request Ia_Address_1, Value: 0.717
13:59:13 - Sent request Ib_Address_1 to address 1: 01 03 20 0E 00 02 AE 08
13:59:13 - Address 1, Request Ib_Address_1, Value: 0.744
13:59:13 - Timeout waiting for response for request Exp_Address_1
13:59:14 - Sent request Ic_Address_1 to address 1: 01 03 20 10 00 02 CE 0E
13:59:14 - Address 1, Request Ic_Address_1, Value: 0.593
13:59:14 - Sent request Imp_Address_1 to address 1: 01 03 10 1E 00 02 A0 CD
13:59:14 - Address 1, Request Imp_Address_1, Value: 1810.3999
13:59:15 - Sent request Pa_Address_1 to address 1: 01 03 20 14 00 02 8F CF
13:59:15 - Address 1, Request Pa_Address_1, Value: 1.628
13:59:15 - Sent request Pb_Address_1 to address 1: 01 03 20 16 00 02 2E 0F
13:59:15 - Address 1, Request Pb_Address_1, Value: 2.324
13:59:16 - Sent request Pc_Address_1 to address 1: 01 03 20 18 00 02 4F CC
13:59:16 - Address 1, Request Pc_Address_1, Value: 1.566
13:59:16 - Sent request Pt_Address_1 to address 1: 01 03 20 12 00 02 6F CE
13:59:17 - Address 1, Request Pt_Address_1, Value: 5.054
13:59:17 - Sent request Ua_Address_1 to address 1: 01 03 20 06 00 02 2F CA
13:59:17 - Unknown request type for Ua_Address_1 at address 1.
13:59:17 - Timeout waiting for response for request Ia_Address_1
13:59:18 - Sent request Ub_Address_1 to address 1: 01 03 20 08 00 02 4E 09
13:59:18 - Unknown request type for Ub_Address_1 at address 1.
13:59:18 - Timeout waiting for response for request Ib_Address_1
13:59:18 - Sent request Uc_Address_1 to address 1: 01 03 20 0A 00 02 EF C9
13:59:18 - Address 1, Request Uc_Address_1, Value: 4418
13:59:19 - Timeout waiting for response for request Ic_Address_1
13:59:19 - Timeout waiting for response for request Imp_Address_1
13:59:20 - Timeout waiting for response for request Pa_Address_1
13:59:20 - Timeout waiting for response for request Pb_Address_1
13:59:21 - Timeout waiting for response for request Pc_Address_1
13:59:21 - Timeout waiting for response for request Pt_Address_1
13:59:22 - Timeout waiting for response for request Ua_Address_1
13:59:22 - Sent request Exp_Address_2 to address 2: 02 03 10 28 00 02 40 F0
13:59:22 - Address 2, Request Exp_Address_2, Value: 0
13:59:22 - Timeout waiting for response for request Ub_Address_1
13:59:23 - Sent request Ia_Address_2 to address 2: 02 03 20 0C 00 02 0F FB
13:59:23 - Address 2, Request Ia_Address_2, Value: 0.889
13:59:23 - Timeout waiting for response for request Uc_Address_1
13:59:23 - Sent request Ib_Address_2 to address 2: 02 03 20 0E 00 02 AE 3B
13:59:23 - Address 2, Request Ib_Address_2, Value: 0.866
13:59:24 - Sent request Ic_Address_2 to address 2: 02 03 20 10 00 02 CE 3D
13:59:24 - Address 2, Request Ic_Address_2, Value: 0.87
13:59:24 - Sent request Imp_Address_2 to address 2: 02 03 10 1E 00 02 A0 FE
13:59:25 - Address 2, Request Imp_Address_2, Value: 2003.3999
13:59:25 - Sent request Pa_Address_2 to address 2: 02 03 20 14 00 02 8F FC
13:59:25 - Address 2, Request Pa_Address_2, Value: 2.576
13:59:25 - Sent request Pb_Address_2 to address 2: 02 03 20 16 00 02 2E 3C
13:59:26 - Address 2, Request Pb_Address_2, Value: 2.43
13:59:26 - Sent request Pc_Address_2 to address 2: 02 03 20 18 00 02 4F FF
13:59:26 - Address 2, Request Pc_Address_2, Value: 2.28
13:59:27 - Sent request Pt_Address_2 to address 2: 02 03 20 12 00 02 6F FD
13:59:27 - Address 2, Request Pt_Address_2, Value: 7.308
13:59:27 - Timeout waiting for response for request Exp_Address_2
13:59:27 - Sent request Ua_Address_2 to address 2: 02 03 20 06 00 02 2F F9
13:59:27 - Unknown request type for Ua_Address_2 at address 2.
13:59:28 - Timeout waiting for response for request Ia_Address_2
13:59:28 - Sent request Ub_Address_2 to address 2: 02 03 20 08 00 02 4E 3A
13:59:28 - Unknown request type for Ub_Address_2 at address 2.
13:59:28 - Timeout waiting for response for request Ib_Address_2
13:59:28 - Sent request Uc_Address_2 to address 2: 02 03 20 0A 00 02 EF FA
13:59:29 - Address 2, Request Uc_Address_2, Value: 4386
13:59:29 - Timeout waiting for response for request Ic_Address_2
13:59:29 - Timeout waiting for response for request Imp_Address_2
13:59:30 - Timeout waiting for response for request Pa_Address_2
13:59:30 - Timeout waiting for response for request Pb_Address_2
13:59:31 - Timeout waiting for response for request Pc_Address_2
13:59:32 - Timeout waiting for response for request Pt_Address_2
13:59:32 - Timeout waiting for response for request Ua_Address_2
13:59:32 - Sent request Exp_Address_3 to address 3: 03 03 10 28 00 02 41 21
13:59:33 - Address 3, Request Exp_Address_3, Value: 1803
13:59:33 - Timeout waiting for response for request Ub_Address_2
13:59:33 - Sent request Ia_Address_3 to address 3: 03 03 20 0C 00 02 0E 2A
13:59:33 - Address 3, Request Ia_Address_3, Value: 1.003
13:59:33 - Timeout waiting for response for request Uc_Address_2
13:59:34 - Sent request Ib_Address_3 to address 3: 03 03 20 0E 00 02 AF EA
13:59:34 - Address 3, Request Ib_Address_3, Value: 0.988
13:59:34 - Sent request Ic_Address_3 to address 3: 03 03 20 10 00 02 CF EC
13:59:34 - Address 3, Request Ic_Address_3, Value: 1.008
13:59:35 - Sent request Imp_Address_3 to address 3: 03 03 10 1E 00 02 A1 2F
13:59:35 - Address 3, Request Imp_Address_3, Value: 1.2
13:59:35 - Sent request Pa_Address_3 to address 3: 03 03 20 14 00 02 8E 2D
13:59:35 - Address 3, Request Pa_Address_3, Value: 1.524
13:59:36 - Sent request Pb_Address_3 to address 3: 03 03 20 16 00 02 2F ED
13:59:36 - Address 3, Request Pb_Address_3, Value: -1.424
13:59:36 - Sent request Pc_Address_3 to address 3: 03 03 20 18 00 02 4E 2E
13:59:36 - Address 3, Request Pc_Address_3, Value: -1.418
13:59:37 - Sent request Pt_Address_3 to address 3: 03 03 20 12 00 02 6E 2C
13:59:37 - Address 3, Request Pt_Address_3, Value: -1.438
13:59:37 - Timeout waiting for response for request Exp_Address_3
13:59:37 - Sent request Ua_Address_3 to address 3: 03 03 20 06 00 02 2E 28
13:59:38 - Unknown request type for Ua_Address_3 at address 3.
13:59:38 - Timeout waiting for response for request Ia_Address_3
13:59:38 - Sent request Ub_Address_3 to address 3: 03 03 20 08 00 02 4F EB
13:59:38 - Unknown request type for Ub_Address_3 at address 3.
13:59:38 - Timeout waiting for response for request Ib_Address_3
13:59:39 - Sent request Uc_Address_3 to address 3: 03 03 20 0A 00 02 EE 2B
13:59:39 - Address 3, Request Uc_Address_3, Value: 4432
13:59:39 - Timeout waiting for response for request Ic_Address_3
13:59:40 - Timeout waiting for response for request Imp_Address_3
13:59:40 - Timeout waiting for response for request Pa_Address_3
13:59:41 - Timeout waiting for response for request Pb_Address_3
13:59:41 - Timeout waiting for response for request Pc_Address_3
13:59:42 - Timeout waiting for response for request Pt_Address_3
13:59:42 - Timeout waiting for response for request Ua_Address_3
13:59:43 - Sent request Exp_Address_4 to address 4: 04 03 10 28 00 02 40 96
13:59:43 - Address 4, Request Exp_Address_4, Value: 2.2
13:59:43 - Timeout waiting for response for request Ub_Address_3
13:59:43 - Sent request Ia_Address_4 to address 4: 04 03 20 0C 00 02 0F 9D
13:59:43 - Address 4, Request Ia_Address_4, Value: 0.403
13:59:43 - Timeout waiting for response for request Uc_Address_3
13:59:44 - Sent request Ib_Address_4 to address 4: 04 03 20 0E 00 02 AE 5D
13:59:44 - Address 4, Request Ib_Address_4, Value: 0.254
13:59:44 - Sent request Ic_Address_4 to address 4: 04 03 20 10 00 02 CE 5B
13:59:44 - Address 4, Request Ic_Address_4, Value: 0.37
13:59:45 - Sent request Imp_Address_4 to address 4: 04 03 10 1E 00 02 A0 98
13:59:45 - Address 4, Request Imp_Address_4, Value: 1151.8
13:59:45 - Sent request Pa_Address_4 to address 4: 04 03 20 14 00 02 8F 9A
13:59:46 - Address 4, Request Pa_Address_4, Value: -0.976
13:59:46 - Sent request Pb_Address_4 to address 4: 04 03 20 16 00 02 2E 5A
13:59:46 - Address 4, Request Pb_Address_4, Value: 0.63
13:59:46 - Sent request Pc_Address_4 to address 4: 04 03 20 18 00 02 4F 99
13:59:47 - Address 4, Request Pc_Address_4, Value: 1.266
13:59:47 - Sent request Pt_Address_4 to address 4: 04 03 20 12 00 02 6F 9B
13:59:47 - Address 4, Request Pt_Address_4, Value: 0.926
13:59:48 - Sent request Ua_Address_4 to address 4: 04 03 20 06 00 02 2F 9F
13:59:48 - Timeout waiting for response for request Exp_Address_4
13:59:48 - Unknown request type for Ua_Address_4 at address 4.
13:59:48 - Timeout waiting for response for request Ia_Address_4
13:59:48 - Sent request Ub_Address_4 to address 4: 04 03 20 08 00 02 4E 5C
13:59:48 - Unknown request type for Ub_Address_4 at address 4.
13:59:49 - Timeout waiting for response for request Ib_Address_4
13:59:49 - Sent request Uc_Address_4 to address 4: 04 03 20 0A 00 02 EF 9C
13:59:49 - Address 4, Request Uc_Address_4, Value: 4632
13:59:49 - Timeout waiting for response for request Ic_Address_4
13:59:50 - Timeout waiting for response for request Imp_Address_4
13:59:50 - Timeout waiting for response for request Pa_Address_4
13:59:51 - Timeout waiting for response for request Pb_Address_4
13:59:51 - Timeout waiting for response for request Pc_Address_4
13:59:52 - Timeout waiting for response for request Pt_Address_4
13:59:53 - Timeout waiting for response for request Ua_Address_4
13:59:53 - Sent request Exp_Address_5 to address 5: 05 03 10 28 00 02 41 47
13:59:53 - Address 5, Request Exp_Address_5, Value: 0
13:59:53 - Timeout waiting for response for request Ub_Address_4
13:59:53 - Sent request Ia_Address_5 to address 5: 05 03 20 0C 00 02 0E 4C
13:59:53 - Address 5, Request Ia_Address_5, Value: 0.478
13:59:54 - Timeout waiting for response for request Uc_Address_4
13:59:54 - Sent request Ib_Address_5 to address 5: 05 03 20 0E 00 02 AF 8C
13:59:54 - Address 5, Request Ib_Address_5, Value: 0.541
13:59:54 - Sent request Ic_Address_5 to address 5: 05 03 20 10 00 02 CF 8A
13:59:55 - Address 5, Request Ic_Address_5, Value: 0.485
13:59:55 - Sent request Imp_Address_5 to address 5: 05 03 10 1E 00 02 A1 49
13:59:55 - Address 5, Request Imp_Address_5, Value: 1184.2
13:59:56 - Sent request Pa_Address_5 to address 5: 05 03 20 14 00 02 8E 4B
13:59:56 - Address 5, Request Pa_Address_5, Value: 0.774
13:59:56 - Sent request Pb_Address_5 to address 5: 05 03 20 16 00 02 2F 8B
13:59:56 - Address 5, Request Pb_Address_5, Value: 1.022
13:59:57 - Sent request Pc_Address_5 to address 5: 05 03 20 18 00 02 4E 48
13:59:57 - Address 5, Request Pc_Address_5, Value: 0.982
13:59:57 - Sent request Pt_Address_5 to address 5: 05 03 20 12 00 02 6E 4A
13:59:57 - Address 5, Request Pt_Address_5, Value: 2.542
13:59:58 - Timeout waiting for response for request Exp_Address_5
13:59:58 - Sent request Ua_Address_5 to address 5: 05 03 20 06 00 02 2E 4E
13:59:58 - Unknown request type for Ua_Address_5 at address 5.
13:59:58 - Timeout waiting for response for request Ia_Address_5
13:59:58 - Sent request Ub_Address_5 to address 5: 05 03 20 08 00 02 4F 8D
13:59:59 - Unknown request type for Ub_Address_5 at address 5.
13:59:59 - Timeout waiting for response for request Ib_Address_5
13:59:59 - Sent request Uc_Address_5 to address 5: 05 03 20 0A 00 02 EE 4D
13:59:59 - Address 5, Request Uc_Address_5, Value: 4396
13:59:59 - Timeout waiting for response for request Ic_Address_5
14:00:00 - Timeout waiting for response for request Imp_Address_5
14:00:01 - Timeout waiting for response for request Pa_Address_5
14:00:01 - Timeout waiting for response for request Pb_Address_5
14:00:02 - Timeout waiting for response for request Pc_Address_5
14:00:02 - Timeout waiting for response for request Pt_Address_5
14:00:03 - Timeout waiting for response for request Ua_Address_5
14:00:03 - Sent request Exp_Address_6 to address 6: 06 03 10 28 00 02 41 74
14:00:03 - Address 6, Request Exp_Address_6, Value: 0
14:00:03 - Timeout waiting for response for request Ub_Address_5
14:00:04 - Sent request Ia_Address_6 to address 6: 06 03 20 0C 00 02 0E 7F
14:00:04 - Address 6, Request Ia_Address_6, Value: 0.858
14:00:04 - Timeout waiting for response for request Uc_Address_5
14:00:04 - Sent request Ib_Address_6 to address 6: 06 03 20 0E 00 02 AF BF
14:00:04 - Address 6, Request Ib_Address_6, Value: 0.838
14:00:05 - Sent request Ic_Address_6 to address 6: 06 03 20 10 00 02 CF B9
14:00:05 - Address 6, Request Ic_Address_6, Value: 0.908
14:00:05 - Sent request Imp_Address_6 to address 6: 06 03 10 1E 00 02 A1 7A
14:00:05 - Address 6, Request Imp_Address_6, Value: 3152
14:00:06 - Sent request Pa_Address_6 to address 6: 06 03 20 14 00 02 8E 78
14:00:06 - Address 6, Request Pa_Address_6, Value: 2.108
14:00:06 - Sent request Pb_Address_6 to address 6: 06 03 20 16 00 02 2F B8
14:00:07 - Address 6, Request Pb_Address_6, Value: 1.632
14:00:07 - Sent request Pc_Address_6 to address 6: 06 03 20 18 00 02 4E 7B
14:00:07 - Address 6, Request Pc_Address_6, Value: 2.144
14:00:08 - Sent request Pt_Address_6 to address 6: 06 03 20 12 00 02 6E 79
14:00:08 - Address 6, Request Pt_Address_6, Value: 6.34
14:00:08 - Timeout waiting for response for request Exp_Address_6
14:00:08 - Sent request Ua_Address_6 to address 6: 06 03 20 06 00 02 2E 7D
14:00:08 - Unknown request type for Ua_Address_6 at address 6.
14:00:09 - Timeout waiting for response for request Ia_Address_6
14:00:09 - Sent request Ub_Address_6 to address 6: 06 03 20 08 00 02 4F BE
14:00:09 - Unknown request type for Ub_Address_6 at address 6.
14:00:09 - Timeout waiting for response for request Ib_Address_6
14:00:09 - Sent request Uc_Address_6 to address 6: 06 03 20 0A 00 02 EE 7E
14:00:09 - Address 6, Request Uc_Address_6, Value: 4396
14:00:16 - Timeout waiting for response for request Ub_Address_6
14:00:16 - Timeout waiting for response for request Ua_Address_6
14:00:16 - Timeout waiting for response for request Pt_Address_6
14:00:16 - Timeout waiting for response for request Pc_Address_6
14:00:16 - Timeout waiting for response for request Ic_Address_6
14:00:16 - Timeout waiting for response for request Uc_Address_6
14:00:16 - Timeout waiting for response for request Pa_Address_6
14:00:16 - Timeout waiting for response for request Imp_Address_6
14:00:16 - Timeout waiting for response for request Pb_Address_6
14:00:19 - Sent request Exp_Address_7 to address 7: 07 03 10 28 00 02 40 A5
14:00:20 - Sent request Ia_Address_7 to address 7: 07 03 20 0C 00 02 0F AE
14:00:20 - Sent request Ib_Address_7 to address 7: 07 03 20 0E 00 02 AE 6E
14:00:21 - Sent request Ic_Address_7 to address 7: 07 03 20 10 00 02 CE 68
14:00:21 - Sent request Imp_Address_7 to address 7: 07 03 10 1E 00 02 A0 AB
14:00:22 - Sent request Pa_Address_7 to address 7: 07 03 20 14 00 02 8F A9
14:00:22 - Sent request Pb_Address_7 to address 7: 07 03 20 16 00 02 2E 69
14:00:23 - Sent request Pc_Address_7 to address 7: 07 03 20 18 00 02 4F AA
14:00:24 - Sent request Pt_Address_7 to address 7: 07 03 20 12 00 02 6F A8
14:00:24 - Timeout waiting for response for request Exp_Address_7
14:00:24 - Sent request Ua_Address_7 to address 7: 07 03 20 06 00 02 2F AC
14:00:25 - Timeout waiting for response for request Ia_Address_7
14:00:25 - Sent request Ub_Address_7 to address 7: 07 03 20 08 00 02 4E 6F
14:00:25 - Timeout waiting for response for request Ib_Address_7
14:00:25 - Sent request Uc_Address_7 to address 7: 07 03 20 0A 00 02 EF AF
14:00:26 - Timeout waiting for response for request Ic_Address_7
14:00:26 - Timeout waiting for response for request Imp_Address_7
14:00:27 - Timeout waiting for response for request Pa_Address_7
14:00:27 - Timeout waiting for response for request Pb_Address_7
14:00:28 - Timeout waiting for response for request Pc_Address_7
14:00:29 - Timeout waiting for response for request Pt_Address_7
14:00:29 - Timeout waiting for response for request Ua_Address_7
14:00:29 - Sent request Exp_Address_8 to address 8: 08 03 10 28 00 02 40 5A
14:00:30 - Timeout waiting for response for request Ub_Address_7
14:00:30 - Sent request Ia_Address_8 to address 8: 08 03 20 0C 00 02 0F 51
14:00:30 - Timeout waiting for response for request Uc_Address_7
14:00:30 - Sent request Ib_Address_8 to address 8: 08 03 20 0E 00 02 AE 91
14:00:31 - Sent request Ic_Address_8 to address 8: 08 03 20 10 00 02 CE 97
14:00:32 - Sent request Imp_Address_8 to address 8: 08 03 10 1E 00 02 A0 54
14:00:32 - Sent request Pa_Address_8 to address 8: 08 03 20 14 00 02 8F 56
14:00:33 - Sent request Pb_Address_8 to address 8: 08 03 20 16 00 02 2E 96
14:00:33 - Sent request Pc_Address_8 to address 8: 08 03 20 18 00 02 4F 55
14:00:34 - Sent request Pt_Address_8 to address 8: 08 03 20 12 00 02 6F 57
14:00:34 - Timeout waiting for response for request Exp_Address_8
14:00:34 - Sent request Ua_Address_8 to address 8: 08 03 20 06 00 02 2F 53
14:00:35 - Timeout waiting for response for request Ia_Address_8
14:00:35 - Sent request Ub_Address_8 to address 8: 08 03 20 08 00 02 4E 90
14:00:35 - Timeout waiting for response for request Ib_Address_8
14:00:35 - Sent request Uc_Address_8 to address 8: 08 03 20 0A 00 02 EF 50
14:00:36 - Timeout waiting for response for request Ic_Address_8
14:00:36 - Timeout waiting for response for request Imp_Address_8
14:00:37 - Timeout waiting for response for request Pa_Address_8
14:00:38 - Timeout waiting for response for request Pb_Address_8
14:00:38 - Timeout waiting for response for request Pc_Address_8
14:00:39 - Timeout waiting for response for request Pt_Address_8
14:00:39 - Timeout waiting for response for request Ua_Address_8
14:00:40 - Sent request Exp_Address_9 to address 9: 09 03 10 28 00 02 41 8B
14:00:40 - Timeout waiting for response for request Ub_Address_8
14:00:40 - Sent request Ia_Address_9 to address 9: 09 03 20 0C 00 02 0E 80
14:00:40 - Timeout waiting for response for request Uc_Address_8
14:00:41 - Sent request Ib_Address_9 to address 9: 09 03 20 0E 00 02 AF 40
14:00:41 - Sent request Ic_Address_9 to address 9: 09 03 20 10 00 02 CF 46
14:00:42 - Sent request Imp_Address_9 to address 9: 09 03 10 1E 00 02 A1 85
14:00:42 - Sent request Pa_Address_9 to address 9: 09 03 20 14 00 02 8E 87
14:00:43 - Sent request Pb_Address_9 to address 9: 09 03 20 16 00 02 2F 47
14:00:43 - Sent request Pc_Address_9 to address 9: 09 03 20 18 00 02 4E 84
14:00:44 - Sent request Pt_Address_9 to address 9: 09 03 20 12 00 02 6E 86
14:00:44 - Timeout waiting for response for request Exp_Address_9
14:00:45 - Sent request Ua_Address_9 to address 9: 09 03 20 06 00 02 2E 82
14:00:45 - Timeout waiting for response for request Ia_Address_9
14:00:45 - Sent request Ub_Address_9 to address 9: 09 03 20 08 00 02 4F 41
14:00:46 - Timeout waiting for response for request Ib_Address_9
14:00:46 - Sent request Uc_Address_9 to address 9: 09 03 20 0A 00 02 EE 81
14:00:46 - Timeout waiting for response for request Ic_Address_9
14:00:47 - Timeout waiting for response for request Imp_Address_9
14:00:47 - Timeout waiting for response for request Pa_Address_9
14:00:48 - Timeout waiting for response for request Pb_Address_9
14:00:48 - Timeout waiting for response for request Pc_Address_9
14:00:49 - Timeout waiting for response for request Pt_Address_9
14:00:50 - Timeout waiting for response for request Ua_Address_9
14:00:50 - Sent request Exp_Address_10 to address 10: 0A 03 10 28 00 02 41 B8
14:00:50 - Address 10, Request Exp_Address_10, Value: 398.6
14:03:09 - Sent request Exp_Address_1 to address 1: 01 03 10 28 00 02 40 C3
14:03:09 - Address 1, Request Exp_Address_1, Value: 0
14:03:13 - Sent request Ia_Address_1 to address 1: 01 03 20 0C 00 02 0F C8
14:03:13 - Address 1, Request Ia_Address_1, Value: 0.891
14:03:13 - Sent request Ib_Address_1 to address 1: 01 03 20 0E 00 02 AE 08
14:03:13 - Address 1, Request Ib_Address_1, Value: 0.74
14:03:14 - Sent request Ic_Address_1 to address 1: 01 03 20 10 00 02 CE 0E
14:03:14 - Address 1, Request Ic_Address_1, Value: 0.72
14:03:14 - Timeout waiting for response for request Exp_Address_1
14:03:14 - Sent request Imp_Address_1 to address 1: 01 03 10 1E 00 02 A0 CD
14:03:14 - Address 1, Request Imp_Address_1, Value: 1810.8
14:03:15 - Sent request Pa_Address_1 to address 1: 01 03 20 14 00 02 8F CF
14:03:15 - Address 1, Request Pa_Address_1, Value: 2.374
14:03:15 - Sent request Pb_Address_1 to address 1: 01 03 20 16 00 02 2E 0F
14:03:16 - Address 1, Request Pb_Address_1, Value: 2.63
14:03:16 - Sent request Pc_Address_1 to address 1: 01 03 20 18 00 02 4F CC
14:03:16 - Address 1, Request Pc_Address_1, Value: 1.642
14:03:16 - Sent request Pt_Address_1 to address 1: 01 03 20 12 00 02 6F CE
14:03:17 - Address 1, Request Pt_Address_1, Value: 7.088
14:03:17 - Sent request Ua_Address_1 to address 1: 01 03 20 06 00 02 2F CA
14:03:17 - Address 1, Request Ua_Address_1, Value: 4548
14:03:18 - Timeout waiting for response for request Ia_Address_1
14:03:18 - Sent request Ub_Address_1 to address 1: 01 03 20 08 00 02 4E 09
14:03:18 - Address 1, Request Ub_Address_1, Value: 4450
14:03:18 - Timeout waiting for response for request Ib_Address_1
14:03:18 - Sent request Uc_Address_1 to address 1: 01 03 20 0A 00 02 EF C9
14:03:18 - Address 1, Request Uc_Address_1, Value: 4362
14:03:21 - Timeout waiting for response for request Ic_Address_1
14:03:21 - Timeout waiting for response for request Pc_Address_1
14:03:21 - Timeout waiting for response for request Pb_Address_1
14:03:21 - Timeout waiting for response for request Pa_Address_1
14:03:21 - Timeout waiting for response for request Imp_Address_1
14:03:21 - Timeout waiting for response for request Pt_Address_1
14:03:22 - Timeout waiting for response for request Ua_Address_1
14:03:23 - Timeout waiting for response for request Ub_Address_1
14:03:23 - Timeout waiting for response for request Uc_Address_1
14:03:24 - Sent request Exp_Address_2 to address 2: 02 03 10 28 00 02 40 F0
14:03:24 - Address 2, Request Exp_Address_2, Value: 0
14:03:25 - Sent request Ia_Address_2 to address 2: 02 03 20 0C 00 02 0F FB
14:03:25 - Address 2, Request Ia_Address_2, Value: 0.87
14:03:25 - Sent request Ib_Address_2 to address 2: 02 03 20 0E 00 02 AE 3B
14:03:26 - Address 2, Request Ib_Address_2, Value: 0.824
14:03:26 - Sent request Ic_Address_2 to address 2: 02 03 20 10 00 02 CE 3D
14:03:26 - Address 2, Request Ic_Address_2, Value: 0.847
14:03:27 - Sent request Imp_Address_2 to address 2: 02 03 10 1E 00 02 A0 FE
14:03:27 - Address 2, Request Imp_Address_2, Value: 2003.8
14:03:27 - Sent request Pa_Address_2 to address 2: 02 03 20 14 00 02 8F FC
14:03:27 - Address 2, Request Pa_Address_2, Value: 2.444
14:03:28 - Sent request Pb_Address_2 to address 2: 02 03 20 16 00 02 2E 3C
14:03:28 - Address 2, Request Pb_Address_2, Value: 2.086
14:03:28 - Sent request Pc_Address_2 to address 2: 02 03 20 18 00 02 4F FF
14:03:28 - Address 2, Request Pc_Address_2, Value: 2.132
14:03:29 - Sent request Pt_Address_2 to address 2: 02 03 20 12 00 02 6F FD
14:03:29 - Address 2, Request Pt_Address_2, Value: 6.638
14:03:29 - Timeout waiting for response for request Exp_Address_2
14:03:29 - Sent request Ua_Address_2 to address 2: 02 03 20 06 00 02 2F F9
14:03:30 - Address 2, Request Ua_Address_2, Value: 4542
14:03:30 - Timeout waiting for response for request Ia_Address_2
14:03:30 - Sent request Ub_Address_2 to address 2: 02 03 20 08 00 02 4E 3A
14:03:30 - Address 2, Request Ub_Address_2, Value: 4486
14:03:30 - Timeout waiting for response for request Ib_Address_2
14:03:31 - Sent request Uc_Address_2 to address 2: 02 03 20 0A 00 02 EF FA
14:03:31 - Address 2, Request Uc_Address_2, Value: 4408
14:03:31 - Timeout waiting for response for request Ic_Address_2
14:03:32 - Timeout waiting for response for request Imp_Address_2
14:03:32 - Timeout waiting for response for request Pa_Address_2
14:03:33 - Timeout waiting for response for request Pb_Address_2
14:03:33 - Timeout waiting for response for request Pc_Address_2
14:03:34 - Timeout waiting for response for request Pt_Address_2
14:03:34 - Timeout waiting for response for request Ua_Address_2
14:03:35 - Sent request Exp_Address_3 to address 3: 03 03 10 28 00 02 41 21
14:03:35 - Address 3, Request Exp_Address_3, Value: 1803.6
14:03:35 - Timeout waiting for response for request Ub_Address_2
14:03:35 - Sent request Ia_Address_3 to address 3: 03 03 20 0C 00 02 0E 2A
14:03:35 - Address 3, Request Ia_Address_3, Value: 1.054
14:03:35 - Timeout waiting for response for request Uc_Address_2
14:03:36 - Sent request Ib_Address_3 to address 3: 03 03 20 0E 00 02 AF EA
14:03:36 - Address 3, Request Ib_Address_3, Value: 0.896
14:03:36 - Sent request Ic_Address_3 to address 3: 03 03 20 10 00 02 CF EC
14:03:36 - Address 3, Request Ic_Address_3, Value: 0.855
14:03:37 - Sent request Imp_Address_3 to address 3: 03 03 10 1E 00 02 A1 2F
14:03:37 - Address 3, Request Imp_Address_3, Value: 1.2
14:03:37 - Sent request Pa_Address_3 to address 3: 03 03 20 14 00 02 8E 2D
14:03:38 - Address 3, Request Pa_Address_3, Value: 2.09
14:03:38 - Sent request Pb_Address_3 to address 3: 03 03 20 16 00 02 2F ED
14:03:38 - Address 3, Request Pb_Address_3, Value: -1.29
14:03:38 - Sent request Pc_Address_3 to address 3: 03 03 20 18 00 02 4E 2E
14:03:39 - Address 3, Request Pc_Address_3, Value: -1.92
14:03:39 - Sent request Pt_Address_3 to address 3: 03 03 20 12 00 02 6E 2C
14:03:39 - Address 3, Request Pt_Address_3, Value: -0.994
14:03:40 - Timeout waiting for response for request Exp_Address_3
14:03:40 - Sent request Ua_Address_3 to address 3: 03 03 20 06 00 02 2E 28
14:03:40 - Address 3, Request Ua_Address_3, Value: 4448
14:03:40 - Timeout waiting for response for request Ia_Address_3
14:03:40 - Sent request Ub_Address_3 to address 3: 03 03 20 08 00 02 4F EB
14:03:40 - Address 3, Request Ub_Address_3, Value: 4556
14:03:41 - Timeout waiting for response for request Ib_Address_3
14:03:41 - Sent request Uc_Address_3 to address 3: 03 03 20 0A 00 02 EE 2B
14:03:41 - Address 3, Request Uc_Address_3, Value: 4340
14:03:41 - Timeout waiting for response for request Ic_Address_3
14:03:42 - Timeout waiting for response for request Imp_Address_3
14:03:42 - Timeout waiting for response for request Pa_Address_3
14:03:43 - Timeout waiting for response for request Pb_Address_3
14:03:43 - Timeout waiting for response for request Pc_Address_3
14:03:44 - Timeout waiting for response for request Pt_Address_3
14:03:45 - Timeout waiting for response for request Ua_Address_3
14:03:45 - Sent request Exp_Address_4 to address 4: 04 03 10 28 00 02 40 96
14:03:45 - Address 4, Request Exp_Address_4, Value: 2.2
14:03:45 - Timeout waiting for response for request Ub_Address_3
14:03:45 - Sent request Ia_Address_4 to address 4: 04 03 20 0C 00 02 0F 9D
14:03:45 - Address 4, Request Ia_Address_4, Value: 0.42
14:03:46 - Timeout waiting for response for request Uc_Address_3
14:03:46 - Sent request Ib_Address_4 to address 4: 04 03 20 0E 00 02 AE 5D
14:03:46 - Address 4, Request Ib_Address_4, Value: 0.258
14:03:46 - Sent request Ic_Address_4 to address 4: 04 03 20 10 00 02 CE 5B
14:03:47 - Address 4, Request Ic_Address_4, Value: 0.37
14:03:47 - Sent request Imp_Address_4 to address 4: 04 03 10 1E 00 02 A0 98
14:03:47 - Address 4, Request Imp_Address_4, Value: 1152.2
14:03:48 - Sent request Pa_Address_4 to address 4: 04 03 20 14 00 02 8F 9A
14:03:48 - Address 4, Request Pa_Address_4, Value: -1.024
14:03:48 - Sent request Pb_Address_4 to address 4: 04 03 20 16 00 02 2E 5A
14:03:48 - Address 4, Request Pb_Address_4, Value: 0.648
14:03:49 - Sent request Pc_Address_4 to address 4: 04 03 20 18 00 02 4F 99
14:03:49 - Address 4, Request Pc_Address_4, Value: 1.228
14:03:49 - Sent request Pt_Address_4 to address 4: 04 03 20 12 00 02 6F 9B
14:03:49 - Address 4, Request Pt_Address_4, Value: 0.902
14:03:50 - Timeout waiting for response for request Exp_Address_4
14:03:50 - Sent request Ua_Address_4 to address 4: 04 03 20 06 00 02 2F 9F
14:03:50 - Address 4, Request Ua_Address_4, Value: 4392
14:03:50 - Timeout waiting for response for request Ia_Address_4
14:03:50 - Sent request Ub_Address_4 to address 4: 04 03 20 08 00 02 4E 5C
14:03:51 - Address 4, Request Ub_Address_4, Value: 4508
14:03:51 - Timeout waiting for response for request Ib_Address_4
14:03:51 - Sent request Uc_Address_4 to address 4: 04 03 20 0A 00 02 EF 9C
14:03:51 - Address 4, Request Uc_Address_4, Value: 4576
14:03:51 - Timeout waiting for response for request Ic_Address_4
14:03:52 - Timeout waiting for response for request Imp_Address_4
14:03:53 - Timeout waiting for response for request Pa_Address_4
14:03:53 - Timeout waiting for response for request Pb_Address_4
14:03:54 - Timeout waiting for response for request Pc_Address_4
14:03:54 - Timeout waiting for response for request Pt_Address_4
14:03:55 - Timeout waiting for response for request Ua_Address_4
14:03:55 - Sent request Exp_Address_5 to address 5: 05 03 10 28 00 02 41 47
14:03:55 - Address 5, Request Exp_Address_5, Value: 0
14:03:55 - Timeout waiting for response for request Ub_Address_4
14:03:56 - Sent request Ia_Address_5 to address 5: 05 03 20 0C 00 02 0E 4C
14:03:56 - Address 5, Request Ia_Address_5, Value: 0.555
14:03:56 - Timeout waiting for response for request Uc_Address_4
14:03:56 - Sent request Ib_Address_5 to address 5: 05 03 20 0E 00 02 AF 8C
14:03:56 - Address 5, Request Ib_Address_5, Value: 0.552
14:03:57 - Sent request Ic_Address_5 to address 5: 05 03 20 10 00 02 CF 8A
14:03:57 - Address 5, Request Ic_Address_5, Value: 0.567
14:03:57 - Sent request Imp_Address_5 to address 5: 05 03 10 1E 00 02 A1 49
14:03:57 - Address 5, Request Imp_Address_5, Value: 1184.6
14:03:58 - Sent request Pa_Address_5 to address 5: 05 03 20 14 00 02 8E 4B
14:03:58 - Address 5, Request Pa_Address_5, Value: 1.122
14:03:58 - Sent request Pb_Address_5 to address 5: 05 03 20 16 00 02 2F 8B
14:03:59 - Address 5, Request Pb_Address_5, Value: 1.628
14:03:59 - Sent request Pc_Address_5 to address 5: 05 03 20 18 00 02 4E 48
14:03:59 - Address 5, Request Pc_Address_5, Value: 2.208
14:03:59 - Sent request Pt_Address_5 to address 5: 05 03 20 12 00 02 6E 4A
14:04:00 - Address 5, Request Pt_Address_5, Value: 5.938
14:04:00 - Timeout waiting for response for request Exp_Address_5
14:04:00 - Sent request Ua_Address_5 to address 5: 05 03 20 06 00 02 2E 4E
14:04:00 - Address 5, Request Ua_Address_5, Value: 4580
14:04:00 - Timeout waiting for response for request Ia_Address_5
14:04:01 - Sent request Ub_Address_5 to address 5: 05 03 20 08 00 02 4F 8D
14:04:01 - Address 5, Request Ub_Address_5, Value: 4488
14:04:01 - Timeout waiting for response for request Ib_Address_5
14:04:01 - Sent request Uc_Address_5 to address 5: 05 03 20 0A 00 02 EE 4D
14:04:01 - Address 5, Request Uc_Address_5, Value: 4398
14:04:02 - Timeout waiting for response for request Ic_Address_5
14:04:02 - Timeout waiting for response for request Imp_Address_5
14:04:03 - Timeout waiting for response for request Pa_Address_5
14:04:03 - Timeout waiting for response for request Pb_Address_5
14:04:04 - Timeout waiting for response for request Pc_Address_5
14:04:04 - Timeout waiting for response for request Pt_Address_5
14:04:05 - Timeout waiting for response for request Ua_Address_5
14:04:05 - Sent request Exp_Address_6 to address 6: 06 03 10 28 00 02 41 74
14:04:05 - Address 6, Request Exp_Address_6, Value: 0
14:04:06 - Timeout waiting for response for request Ub_Address_5
14:04:06 - Sent request Ia_Address_6 to address 6: 06 03 20 0C 00 02 0E 7F
14:04:06 - Address 6, Request Ia_Address_6, Value: 0.968
14:04:06 - Timeout waiting for response for request Uc_Address_5
14:04:06 - Sent request Ib_Address_6 to address 6: 06 03 20 0E 00 02 AF BF
14:04:07 - Address 6, Request Ib_Address_6, Value: 1.225
14:04:07 - Sent request Ic_Address_6 to address 6: 06 03 20 10 00 02 CF B9
14:04:07 - Address 6, Request Ic_Address_6, Value: 1.309
14:04:08 - Sent request Imp_Address_6 to address 6: 06 03 10 1E 00 02 A1 7A
14:04:08 - Address 6, Request Imp_Address_6, Value: 3152.8
14:04:08 - Sent request Pa_Address_6 to address 6: 06 03 20 14 00 02 8E 78
14:04:08 - Address 6, Request Pa_Address_6, Value: 2.672
14:04:09 - Sent request Pb_Address_6 to address 6: 06 03 20 16 00 02 2F B8
14:04:09 - Address 6, Request Pb_Address_6, Value: 2.348
14:04:09 - Sent request Pc_Address_6 to address 6: 06 03 20 18 00 02 4E 7B
14:04:09 - Address 6, Request Pc_Address_6, Value: 3.906
14:04:10 - Sent request Pt_Address_6 to address 6: 06 03 20 12 00 02 6E 79
14:04:10 - Address 6, Request Pt_Address_6, Value: 10.128
14:04:10 - Timeout waiting for response for request Exp_Address_6
14:04:10 - Sent request Ua_Address_6 to address 6: 06 03 20 06 00 02 2E 7D
14:04:10 - Address 6, Request Ua_Address_6, Value: 4576
14:04:11 - Timeout waiting for response for request Ia_Address_6
14:04:11 - Sent request Ub_Address_6 to address 6: 06 03 20 08 00 02 4F BE
14:04:11 - Address 6, Request Ub_Address_6, Value: 4508
14:04:11 - Timeout waiting for response for request Ib_Address_6
14:04:11 - Sent request Uc_Address_6 to address 6: 06 03 20 0A 00 02 EE 7E
14:04:12 - Address 6, Request Uc_Address_6, Value: 4402
14:04:12 - Timeout waiting for response for request Ic_Address_6
14:04:12 - Timeout waiting for response for request Imp_Address_6
14:04:13 - Timeout waiting for response for request Pa_Address_6
14:04:14 - Timeout waiting for response for request Pb_Address_6
14:04:14 - Timeout waiting for response for request Pc_Address_6
14:04:15 - Timeout waiting for response for request Pt_Address_6
14:04:15 - Timeout waiting for response for request Ua_Address_6
14:04:15 - Sent request Exp_Address_7 to address 7: 07 03 10 28 00 02 40 A5
14:04:16 - Timeout waiting for response for request Ub_Address_6
14:04:16 - Sent request Ia_Address_7 to address 7: 07 03 20 0C 00 02 0F AE
14:04:16 - Timeout waiting for response for request Uc_Address_6
14:04:17 - Sent request Ib_Address_7 to address 7: 07 03 20 0E 00 02 AE 6E
14:04:17 - Sent request Ic_Address_7 to address 7: 07 03 20 10 00 02 CE 68
14:04:18 - Sent request Imp_Address_7 to address 7: 07 03 10 1E 00 02 A0 AB
14:04:18 - Sent request Pa_Address_7 to address 7: 07 03 20 14 00 02 8F A9
14:04:19 - Sent request Pb_Address_7 to address 7: 07 03 20 16 00 02 2E 69
14:04:19 - Sent request Pc_Address_7 to address 7: 07 03 20 18 00 02 4F AA
14:04:20 - Sent request Pt_Address_7 to address 7: 07 03 20 12 00 02 6F A8
14:04:20 - Timeout waiting for response for request Exp_Address_7
14:04:21 - Sent request Ua_Address_7 to address 7: 07 03 20 06 00 02 2F AC
14:04:21 - Timeout waiting for response for request Ia_Address_7
14:04:21 - Sent request Ub_Address_7 to address 7: 07 03 20 08 00 02 4E 6F
14:04:22 - Timeout waiting for response for request Ib_Address_7
14:04:22 - Sent request Uc_Address_7 to address 7: 07 03 20 0A 00 02 EF AF
14:04:22 - Timeout waiting for response for request Ic_Address_7
14:04:23 - Timeout waiting for response for request Imp_Address_7
14:04:23 - Timeout waiting for response for request Pa_Address_7
14:04:24 - Timeout waiting for response for request Pb_Address_7
14:04:24 - Timeout waiting for response for request Pc_Address_7
14:04:25 - Timeout waiting for response for request Pt_Address_7
14:04:25 - Timeout waiting for response for request Ua_Address_7
14:04:26 - Sent request Exp_Address_8 to address 8: 08 03 10 28 00 02 40 5A
14:04:26 - Timeout waiting for response for request Ub_Address_7
14:04:26 - Sent request Ia_Address_8 to address 8: 08 03 20 0C 00 02 0F 51
14:04:27 - Timeout waiting for response for request Uc_Address_7
14:04:27 - Sent request Ib_Address_8 to address 8: 08 03 20 0E 00 02 AE 91
14:04:27 - Sent request Ic_Address_8 to address 8: 08 03 20 10 00 02 CE 97
14:04:28 - Sent request Imp_Address_8 to address 8: 08 03 10 1E 00 02 A0 54
14:04:29 - Sent request Pa_Address_8 to address 8: 08 03 20 14 00 02 8F 56
14:04:29 - Sent request Pb_Address_8 to address 8: 08 03 20 16 00 02 2E 96
14:04:30 - Sent request Pc_Address_8 to address 8: 08 03 20 18 00 02 4F 55
14:04:30 - Sent request Pt_Address_8 to address 8: 08 03 20 12 00 02 6F 57
14:04:31 - Timeout waiting for response for request Exp_Address_8
14:04:31 - Sent request Ua_Address_8 to address 8: 08 03 20 06 00 02 2F 53
14:04:31 - Timeout waiting for response for request Ia_Address_8
14:04:31 - Sent request Ub_Address_8 to address 8: 08 03 20 08 00 02 4E 90
14:04:32 - Timeout waiting for response for request Ib_Address_8
14:04:32 - Sent request Uc_Address_8 to address 8: 08 03 20 0A 00 02 EF 50
14:04:32 - Timeout waiting for response for request Ic_Address_8
14:04:33 - Timeout waiting for response for request Imp_Address_8
14:04:33 - Timeout waiting for response for request Pa_Address_8
14:04:34 - Timeout waiting for response for request Pb_Address_8
14:04:35 - Timeout waiting for response for request Pc_Address_8
14:04:35 - Timeout waiting for response for request Pt_Address_8
14:04:36 - Timeout waiting for response for request Ua_Address_8
14:04:36 - Sent request Exp_Address_9 to address 9: 09 03 10 28 00 02 41 8B
14:04:36 - Timeout waiting for response for request Ub_Address_8
14:04:37 - Sent request Ia_Address_9 to address 9: 09 03 20 0C 00 02 0E 80
14:04:37 - Timeout waiting for response for request Uc_Address_8
14:04:37 - Sent request Ib_Address_9 to address 9: 09 03 20 0E 00 02 AF 40
14:04:38 - Sent request Ic_Address_9 to address 9: 09 03 20 10 00 02 CF 46
14:04:38 - Sent request Imp_Address_9 to address 9: 09 03 10 1E 00 02 A1 85
14:04:39 - Sent request Pa_Address_9 to address 9: 09 03 20 14 00 02 8E 87
14:04:39 - Sent request Pb_Address_9 to address 9: 09 03 20 16 00 02 2F 47
14:04:40 - Sent request Pc_Address_9 to address 9: 09 03 20 18 00 02 4E 84
14:04:41 - Sent request Pt_Address_9 to address 9: 09 03 20 12 00 02 6E 86
14:04:41 - Timeout waiting for response for request Exp_Address_9
14:04:41 - Sent request Ua_Address_9 to address 9: 09 03 20 06 00 02 2E 82
14:04:42 - Timeout waiting for response for request Ia_Address_9
14:04:42 - Sent request Ub_Address_9 to address 9: 09 03 20 08 00 02 4F 41
14:04:42 - Timeout waiting for response for request Ib_Address_9
14:04:42 - Sent request Uc_Address_9 to address 9: 09 03 20 0A 00 02 EE 81
14:04:43 - Timeout waiting for response for request Ic_Address_9
14:04:43 - Timeout waiting for response for request Imp_Address_9
14:04:44 - Timeout waiting for response for request Pa_Address_9
14:04:44 - Timeout waiting for response for request Pb_Address_9
14:04:45 - Timeout waiting for response for request Pc_Address_9
14:04:45 - Timeout waiting for response for request Pt_Address_9
14:04:46 - Timeout waiting for response for request Ua_Address_9
14:04:46 - Sent request Exp_Address_10 to address 10: 0A 03 10 28 00 02 41 B8
14:04:46 - Address 10, Request Exp_Address_10, Value: 398.6
14:04:47 - Timeout waiting for response for request Ub_Address_9
14:04:47 - Sent request Ia_Address_10 to address 10: 0A 03 20 0C 00 02 0E B3
14:04:47 - Address 10, Request Ia_Address_10, Value: 0.535
14:04:47 - Timeout waiting for response for request Uc_Address_9
14:04:47 - Sent request Ib_Address_10 to address 10: 0A 03 20 0E 00 02 AF 73
14:04:48 - Address 10, Request Ib_Address_10, Value: 0.516
14:04:48 - Sent request Ic_Address_10 to address 10: 0A 03 20 10 00 02 CF 75
14:04:48 - Address 10, Request Ic_Address_10, Value: 0.467
14:04:49 - Sent request Imp_Address_10 to address 10: 0A 03 10 1E 00 02 A1 B6
14:04:49 - Address 10, Request Imp_Address_10, Value: 1095
14:04:49 - Sent request Pa_Address_10 to address 10: 0A 03 20 14 00 02 8E B4
14:04:49 - Address 10, Request Pa_Address_10, Value: 2.242
14:04:50 - Sent request Pb_Address_10 to address 10: 0A 03 20 16 00 02 2F 74
14:04:50 - Address 10, Request Pb_Address_10, Value: -1.484
14:04:50 - Sent request Pc_Address_10 to address 10: 0A 03 20 18 00 02 4E B7
14:04:50 - Address 10, Request Pc_Address_10, Value: -0.602
14:04:51 - Sent request Pt_Address_10 to address 10: 0A 03 20 12 00 02 6E B5
14:04:51 - Address 10, Request Pt_Address_10, Value: 0.088
14:04:51 - Timeout waiting for response for request Exp_Address_10
14:04:51 - Sent request Ua_Address_10 to address 10: 0A 03 20 06 00 02 2E B1
14:04:52 - Address 10, Request Ua_Address_10, Value: 4546
14:04:52 - Timeout waiting for response for request Ia_Address_10
14:04:52 - Sent request Ub_Address_10 to address 10: 0A 03 20 08 00 02 4F 72
14:04:52 - Address 10, Request Ub_Address_10, Value: 4688
14:04:52 - Timeout waiting for response for request Ib_Address_10
14:04:53 - Sent request Uc_Address_10 to address 10: 0A 03 20 0A 00 02 EE B2
14:04:53 - Address 10, Request Uc_Address_10, Value: 4652
14:04:53 - Timeout waiting for response for request Ic_Address_10
14:04:54 - Timeout waiting for response for request Imp_Address_10
14:04:54 - Timeout waiting for response for request Pa_Address_10
14:04:55 - Timeout waiting for response for request Pb_Address_10
14:04:55 - Timeout waiting for response for request Pc_Address_10
14:04:56 - Timeout waiting for response for request Pt_Address_10
14:04:56 - Timeout waiting for response for request Ua_Address_10
14:04:57 - Sent request Exp_Address_11 to address 11: 0B 03 10 28 00 02 40 69
14:04:57 - Timeout waiting for response for request Ub_Address_10
14:04:57 - Sent request Ia_Address_11 to address 11: 0B 03 20 0C 00 02 0F 62
14:04:58 - Timeout waiting for response for request Uc_Address_10
14:04:58 - Sent request Ib_Address_11 to address 11: 0B 03 20 0E 00 02 AE A2
14:04:58 - Sent request Ic_Address_11 to address 11: 0B 03 20 10 00 02 CE A4
14:04:59 - Sent request Imp_Address_11 to address 11: 0B 03 10 1E 00 02 A0 67
14:04:59 - Sent request Pa_Address_11 to address 11: 0B 03 20 14 00 02 8F 65
14:05:00 - Sent request Pb_Address_11 to address 11: 0B 03 20 16 00 02 2E A5
14:05:01 - Sent request Pc_Address_11 to address 11: 0B 03 20 18 00 02 4F 66
14:05:01 - Sent request Pt_Address_11 to address 11: 0B 03 20 12 00 02 6F 64
14:05:02 - Timeout waiting for response for request Exp_Address_11
14:05:02 - Sent request Ua_Address_11 to address 11: 0B 03 20 06 00 02 2F 60
14:05:02 - Timeout waiting for response for request Ia_Address_11
14:05:02 - Sent request Ub_Address_11 to address 11: 0B 03 20 08 00 02 4E A3
14:05:03 - Timeout waiting for response for request Ib_Address_11
14:05:03 - Sent request Uc_Address_11 to address 11: 0B 03 20 0A 00 02 EF 63
14:05:03 - Timeout waiting for response for request Ic_Address_11
14:05:04 - Timeout waiting for response for request Imp_Address_11
14:05:04 - Timeout waiting for response for request Pa_Address_11
14:05:05 - Timeout waiting for response for request Pb_Address_11
14:05:06 - Timeout waiting for response for request Pc_Address_11
14:05:06 - Timeout waiting for response for request Pt_Address_11
14:05:07 - Timeout waiting for response for request Ua_Address_11
14:05:07 - Sent request Exp_Address_12 to address 12: 0C 03 10 28 00 02 41 DE
14:05:07 - Timeout waiting for response for request Ub_Address_11
14:05:07 - Sent request Ia_Address_12 to address 12: 0C 03 20 0C 00 02 0E D5
14:05:08 - Timeout waiting for response for request Uc_Address_11
14:05:08 - Sent request Ib_Address_12 to address 12: 0C 03 20 0E 00 02 AF 15
14:05:09 - Sent request Ic_Address_12 to address 12: 0C 03 20 10 00 02 CF 13
14:05:09 - Sent request Imp_Address_12 to address 12: 0C 03 10 1E 00 02 A1 D0
14:05:10 - Sent request Pa_Address_12 to address 12: 0C 03 20 14 00 02 8E D2
14:05:10 - Sent request Pb_Address_12 to address 12: 0C 03 20 16 00 02 2F 12
14:05:11 - Sent request Pc_Address_12 to address 12: 0C 03 20 18 00 02 4E D1
14:05:11 - Sent request Pt_Address_12 to address 12: 0C 03 20 12 00 02 6E D3
14:05:12 - Timeout waiting for response for request Exp_Address_12
14:05:12 - Sent request Ua_Address_12 to address 12: 0C 03 20 06 00 02 2E D7
14:05:12 - Timeout waiting for response for request Ia_Address_12
14:05:13 - Sent request Ub_Address_12 to address 12: 0C 03 20 08 00 02 4F 14
14:05:13 - Timeout waiting for response for request Ib_Address_12
14:05:13 - Sent request Uc_Address_12 to address 12: 0C 03 20 0A 00 02 EE D4
14:05:14 - Timeout waiting for response for request Ic_Address_12
14:05:14 - Timeout waiting for response for request Imp_Address_12
14:05:15 - Timeout waiting for response for request Pa_Address_12
14:05:15 - Timeout waiting for response for request Pb_Address_12
14:05:16 - Timeout waiting for response for request Pc_Address_12
14:05:17 - Timeout waiting for response for request Pt_Address_12
14:05:17 - Timeout waiting for response for request Ua_Address_12
14:05:18 - Timeout waiting for response for request Ub_Address_12
14:05:18 - Sent request Exp_Address_1 to address 1: 01 03 10 28 00 02 40 C3
14:05:18 - Address 1, Request Exp_Address_1, Value: 0
14:05:18 - Timeout waiting for response for request Uc_Address_12
14:05:18 - Sent request Ia_Address_1 to address 1: 01 03 20 0C 00 02 0F C8
14:05:18 - Address 1, Request Ia_Address_1, Value: 0.917
14:05:19 - Sent request Ib_Address_1 to address 1: 01 03 20 0E 00 02 AE 08
14:05:19 - Address 1, Request Ib_Address_1, Value: 0.795
14:05:19 - Sent request Ic_Address_1 to address 1: 01 03 20 10 00 02 CE 0E
14:05:20 - Address 1, Request Ic_Address_1, Value: 0.765
14:05:20 - Sent request Imp_Address_1 to address 1: 01 03 10 1E 00 02 A0 CD
14:05:20 - Address 1, Request Imp_Address_1, Value: 1811
14:05:21 - Sent request Pa_Address_1 to address 1: 01 03 20 14 00 02 8F CF
14:05:21 - Address 1, Request Pa_Address_1, Value: 2.818
14:05:21 - Sent request Pb_Address_1 to address 1: 01 03 20 16 00 02 2E 0F
14:05:21 - Address 1, Request Pb_Address_1, Value: 2.78
14:05:22 - Sent request Pc_Address_1 to address 1: 01 03 20 18 00 02 4F CC
14:05:22 - Address 1, Request Pc_Address_1, Value: 2.046
14:05:22 - Sent request Pt_Address_1 to address 1: 01 03 20 12 00 02 6F CE
14:05:22 - Address 1, Request Pt_Address_1, Value: 7.194
14:05:23 - Timeout waiting for response for request Exp_Address_1
14:05:23 - Sent request Ua_Address_1 to address 1: 01 03 20 06 00 02 2F CA
14:05:23 - Address 1, Request Ua_Address_1, Value: 4586
14:05:23 - Timeout waiting for response for request Ia_Address_1
14:05:23 - Sent request Ub_Address_1 to address 1: 01 03 20 08 00 02 4E 09
14:05:24 - Address 1, Request Ub_Address_1, Value: 4446
14:05:24 - Timeout waiting for response for request Ib_Address_1
14:05:24 - Sent request Uc_Address_1 to address 1: 01 03 20 0A 00 02 EF C9
14:05:24 - Address 1, Request Uc_Address_1, Value: 4406
14:05:24 - Timeout waiting for response for request Ic_Address_1
14:05:25 - Timeout waiting for response for request Imp_Address_1
14:05:26 - Timeout waiting for response for request Pa_Address_1
14:05:26 - Timeout waiting for response for request Pb_Address_1
14:05:27 - Timeout waiting for response for request Pc_Address_1
14:05:27 - Timeout waiting for response for request Pt_Address_1
14:05:28 - Timeout waiting for response for request Ua_Address_1
14:05:28 - Sent request Exp_Address_2 to address 2: 02 03 10 28 00 02 40 F0
14:05:28 - Address 2, Request Exp_Address_2, Value: 0
14:05:28 - Timeout waiting for response for request Ub_Address_1
14:05:29 - Sent request Ia_Address_2 to address 2: 02 03 20 0C 00 02 0F FB
14:05:29 - Address 2, Request Ia_Address_2, Value: 0.906
14:05:29 - Timeout waiting for response for request Uc_Address_1
14:05:29 - Sent request Ib_Address_2 to address 2: 02 03 20 0E 00 02 AE 3B
14:05:29 - Address 2, Request Ib_Address_2, Value: 0.884
14:05:30 - Sent request Ic_Address_2 to address 2: 02 03 20 10 00 02 CE 3D
14:05:30 - Address 2, Request Ic_Address_2, Value: 0.901
14:05:30 - Sent request Imp_Address_2 to address 2: 02 03 10 1E 00 02 A0 FE
14:05:30 - Address 2, Request Imp_Address_2, Value: 2004
14:05:31 - Sent request Pa_Address_2 to address 2: 02 03 20 14 00 02 8F FC
14:05:31 - Address 2, Request Pa_Address_2, Value: 2.604
14:05:31 - Sent request Pb_Address_2 to address 2: 02 03 20 16 00 02 2E 3C
14:05:32 - Address 2, Request Pb_Address_2, Value: 2.446
14:05:32 - Sent request Pc_Address_2 to address 2: 02 03 20 18 00 02 4F FF
14:05:32 - Address 2, Request Pc_Address_2, Value: 2.42
14:05:33 - Sent request Pt_Address_2 to address 2: 02 03 20 12 00 02 6F FD
14:05:33 - Address 2, Request Pt_Address_2, Value: 7.538
14:05:33 - Timeout waiting for response for request Exp_Address_2
14:05:33 - Sent request Ua_Address_2 to address 2: 02 03 20 06 00 02 2F F9
14:05:33 - Address 2, Request Ua_Address_2, Value: 4578
14:05:34 - Timeout waiting for response for request Ia_Address_2
14:05:34 - Sent request Ub_Address_2 to address 2: 02 03 20 08 00 02 4E 3A
14:05:34 - Address 2, Request Ub_Address_2, Value: 4508
14:05:34 - Timeout waiting for response for request Ib_Address_2
14:05:34 - Sent request Uc_Address_2 to address 2: 02 03 20 0A 00 02 EF FA
14:05:34 - Address 2, Request Uc_Address_2, Value: 4412
14:05:35 - Timeout waiting for response for request Ic_Address_2
14:05:35 - Timeout waiting for response for request Imp_Address_2
14:05:36 - Timeout waiting for response for request Pa_Address_2
14:05:36 - Timeout waiting for response for request Pb_Address_2
14:05:37 - Timeout waiting for response for request Pc_Address_2
14:05:37 - Timeout waiting for response for request Pt_Address_2
14:05:38 - Timeout waiting for response for request Ua_Address_2
14:05:38 - Sent request Exp_Address_3 to address 3: 03 03 10 28 00 02 41 21
14:05:38 - Address 3, Request Exp_Address_3, Value: 1803.8
14:05:39 - Timeout waiting for response for request Ub_Address_2
14:05:39 - Sent request Ia_Address_3 to address 3: 03 03 20 0C 00 02 0E 2A
14:05:39 - Address 3, Request Ia_Address_3, Value: 0.742
14:05:39 - Timeout waiting for response for request Uc_Address_2
14:05:39 - Sent request Ib_Address_3 to address 3: 03 03 20 0E 00 02 AF EA
14:05:40 - Address 3, Request Ib_Address_3, Value: 0.754
14:05:40 - Sent request Ic_Address_3 to address 3: 03 03 20 10 00 02 CF EC
14:05:40 - Address 3, Request Ic_Address_3, Value: 0.667
14:05:40 - Sent request Imp_Address_3 to address 3: 03 03 10 1E 00 02 A1 2F
14:05:41 - Address 3, Request Imp_Address_3, Value: 1.2
14:05:41 - Sent request Pa_Address_3 to address 3: 03 03 20 14 00 02 8E 2D
14:05:41 - Address 3, Request Pa_Address_3, Value: 0.826
14:05:42 - Sent request Pb_Address_3 to address 3: 03 03 20 16 00 02 2F ED
14:05:42 - Address 3, Request Pb_Address_3, Value: -0.238
14:05:42 - Sent request Pc_Address_3 to address 3: 03 03 20 18 00 02 4E 2E
14:05:42 - Address 3, Request Pc_Address_3, Value: -0.54
14:05:43 - Sent request Pt_Address_3 to address 3: 03 03 20 12 00 02 6E 2C
14:05:43 - Address 3, Request Pt_Address_3, Value: -0.472
14:05:43 - Timeout waiting for response for request Exp_Address_3
14:05:43 - Sent request Ua_Address_3 to address 3: 03 03 20 06 00 02 2E 28
14:05:43 - Address 3, Request Ua_Address_3, Value: 4516
14:05:44 - Timeout waiting for response for request Ia_Address_3
14:05:44 - Sent request Ub_Address_3 to address 3: 03 03 20 08 00 02 4F EB
14:05:44 - Address 3, Request Ub_Address_3, Value: 4608
14:05:44 - Timeout waiting for response for request Ib_Address_3
14:05:44 - Sent request Uc_Address_3 to address 3: 03 03 20 0A 00 02 EE 2B
14:05:45 - Address 3, Request Uc_Address_3, Value: 4442
14:05:45 - Timeout waiting for response for request Ic_Address_3
14:05:45 - Timeout waiting for response for request Imp_Address_3
14:05:46 - Timeout waiting for response for request Pa_Address_3
14:05:47 - Timeout waiting for response for request Pb_Address_3
14:05:47 - Timeout waiting for response for request Pc_Address_3
14:05:48 - Timeout waiting for response for request Pt_Address_3
14:05:48 - Timeout waiting for response for request Ua_Address_3
14:05:48 - Sent request Exp_Address_4 to address 4: 04 03 10 28 00 02 40 96
14:05:49 - Address 4, Request Exp_Address_4, Value: 2.2
14:05:49 - Timeout waiting for response for request Ub_Address_3
14:05:49 - Sent request Ia_Address_4 to address 4: 04 03 20 0C 00 02 0F 9D
14:05:49 - Address 4, Request Ia_Address_4, Value: 0.352
14:05:49 - Timeout waiting for response for request Uc_Address_3
14:05:50 - Sent request Ib_Address_4 to address 4: 04 03 20 0E 00 02 AE 5D
14:05:50 - Address 4, Request Ib_Address_4, Value: 0.228
14:05:50 - Sent request Ic_Address_4 to address 4: 04 03 20 10 00 02 CE 5B
14:05:50 - Address 4, Request Ic_Address_4, Value: 0.326
14:05:51 - Sent request Imp_Address_4 to address 4: 04 03 10 1E 00 02 A0 98
14:05:51 - Address 4, Request Imp_Address_4, Value: 1152.4
14:05:51 - Sent request Pa_Address_4 to address 4: 04 03 20 14 00 02 8F 9A
14:05:51 - Address 4, Request Pa_Address_4, Value: -0.604
14:05:52 - Sent request Pb_Address_4 to address 4: 04 03 20 16 00 02 2E 5A
14:05:52 - Address 4, Request Pb_Address_4, Value: 0.502
14:05:52 - Sent request Pc_Address_4 to address 4: 04 03 20 18 00 02 4F 99
14:05:52 - Address 4, Request Pc_Address_4, Value: 1.152
14:05:53 - Sent request Pt_Address_4 to address 4: 04 03 20 12 00 02 6F 9B
14:05:53 - Address 4, Request Pt_Address_4, Value: 0.896
14:05:53 - Timeout waiting for response for request Exp_Address_4
14:05:53 - Sent request Ua_Address_4 to address 4: 04 03 20 06 00 02 2F 9F
14:05:54 - Address 4, Request Ua_Address_4, Value: 4408
14:05:54 - Sent request Ub_Address_4 to address 4: 04 03 20 08 00 02 4E 5C
14:05:54 - Timeout waiting for response for request Ia_Address_4
14:05:54 - Address 4, Request Ub_Address_4, Value: 4496
14:05:55 - Timeout waiting for response for request Ib_Address_4
14:05:55 - Sent request Uc_Address_4 to address 4: 04 03 20 0A 00 02 EF 9C
14:05:55 - Address 4, Request Uc_Address_4, Value: 4598
14:05:55 - Timeout waiting for response for request Ic_Address_4
14:05:56 - Timeout waiting for response for request Imp_Address_4
14:05:56 - Timeout waiting for response for request Pa_Address_4
14:05:57 - Timeout waiting for response for request Pb_Address_4
14:05:57 - Timeout waiting for response for request Pc_Address_4
14:05:58 - Timeout waiting for response for request Pt_Address_4
14:05:58 - Timeout waiting for response for request Ua_Address_4
14:05:59 - Sent request Exp_Address_5 to address 5: 05 03 10 28 00 02 41 47
14:05:59 - Address 5, Request Exp_Address_5, Value: 0
14:05:59 - Timeout waiting for response for request Ub_Address_4
14:05:59 - Sent request Ia_Address_5 to address 5: 05 03 20 0C 00 02 0E 4C
14:05:59 - Address 5, Request Ia_Address_5, Value: 0.392
14:06:00 - Timeout waiting for response for request Uc_Address_4
14:06:00 - Sent request Ib_Address_5 to address 5: 05 03 20 0E 00 02 AF 8C
14:06:00 - Address 5, Request Ib_Address_5, Value: 0.464
14:06:00 - Sent request Ic_Address_5 to address 5: 05 03 20 10 00 02 CF 8A
14:06:00 - Address 5, Request Ic_Address_5, Value: 0.49
14:06:01 - Sent request Imp_Address_5 to address 5: 05 03 10 1E 00 02 A1 49
14:06:01 - Address 5, Request Imp_Address_5, Value: 1184.6
14:06:01 - Sent request Pa_Address_5 to address 5: 05 03 20 14 00 02 8E 4B
14:06:02 - Address 5, Request Pa_Address_5, Value: 0.644
14:06:02 - Sent request Pb_Address_5 to address 5: 05 03 20 16 00 02 2F 8B
14:06:02 - Address 5, Request Pb_Address_5, Value: 0.322
14:06:03 - Sent request Pc_Address_5 to address 5: 05 03 20 18 00 02 4E 48
14:06:03 - Address 5, Request Pc_Address_5, Value: 0.968
14:06:03 - Sent request Pt_Address_5 to address 5: 05 03 20 12 00 02 6E 4A
14:06:03 - Address 5, Request Pt_Address_5, Value: 2.234
14:06:04 - Timeout waiting for response for request Exp_Address_5
14:06:04 - Sent request Ua_Address_5 to address 5: 05 03 20 06 00 02 2E 4E
14:06:04 - Address 5, Request Ua_Address_5, Value: 4566
14:06:04 - Timeout waiting for response for request Ia_Address_5
14:06:04 - Sent request Ub_Address_5 to address 5: 05 03 20 08 00 02 4F 8D
14:06:04 - Address 5, Request Ub_Address_5, Value: 4488
14:06:05 - Timeout waiting for response for request Ib_Address_5
14:06:05 - Sent request Uc_Address_5 to address 5: 05 03 20 0A 00 02 EE 4D
14:06:05 - Address 5, Request Uc_Address_5, Value: 4382
14:06:05 - Timeout waiting for response for request Ic_Address_5
14:06:06 - Timeout waiting for response for request Imp_Address_5
14:06:06 - Timeout waiting for response for request Pa_Address_5
14:06:07 - Timeout waiting for response for request Pb_Address_5
14:06:08 - Timeout waiting for response for request Pc_Address_5
14:06:08 - Timeout waiting for response for request Pt_Address_5
14:06:09 - Timeout waiting for response for request Ua_Address_5
14:06:09 - Sent request Exp_Address_6 to address 6: 06 03 10 28 00 02 41 74
14:06:09 - Address 6, Request Exp_Address_6, Value: 0
14:06:09 - Timeout waiting for response for request Ub_Address_5
14:06:09 - Sent request Ia_Address_6 to address 6: 06 03 20 0C 00 02 0E 7F
14:06:10 - Address 6, Request Ia_Address_6, Value: 1.587
14:06:10 - Timeout waiting for response for request Uc_Address_5
14:06:10 - Sent request Ib_Address_6 to address 6: 06 03 20 0E 00 02 AF BF
14:06:10 - Address 6, Request Ib_Address_6, Value: 1.807
14:06:11 - Sent request Ic_Address_6 to address 6: 06 03 20 10 00 02 CF B9
14:06:11 - Address 6, Request Ic_Address_6, Value: 2.013
14:06:11 - Sent request Imp_Address_6 to address 6: 06 03 10 1E 00 02 A1 7A
14:06:11 - Address 6, Request Imp_Address_6, Value: 3153
14:06:12 - Sent request Pa_Address_6 to address 6: 06 03 20 14 00 02 8E 78
14:06:12 - Address 6, Request Pa_Address_6, Value: 6.19
14:06:12 - Sent request Pb_Address_6 to address 6: 06 03 20 16 00 02 2F B8
14:06:12 - Address 6, Request Pb_Address_6, Value: 5.81
14:06:13 - Sent request Pc_Address_6 to address 6: 06 03 20 18 00 02 4E 7B
14:06:13 - Address 6, Request Pc_Address_6, Value: 7.196
14:06:13 - Sent request Pt_Address_6 to address 6: 06 03 20 12 00 02 6E 79
14:06:14 - Address 6, Request Pt_Address_6, Value: 11.06
14:06:14 - Timeout waiting for response for request Exp_Address_6
14:06:14 - Sent request Ua_Address_6 to address 6: 06 03 20 06 00 02 2E 7D
14:06:14 - Address 6, Request Ua_Address_6, Value: 4546
14:06:14 - Timeout waiting for response for request Ia_Address_6
14:06:14 - Sent request Ub_Address_6 to address 6: 06 03 20 08 00 02 4F BE
14:06:15 - Address 6, Request Ub_Address_6, Value: 4452
14:06:15 - Timeout waiting for response for request Ib_Address_6
14:06:15 - Sent request Uc_Address_6 to address 6: 06 03 20 0A 00 02 EE 7E
14:06:15 - Address 6, Request Uc_Address_6, Value: 4380
14:06:15 - Timeout waiting for response for request Ic_Address_6
14:06:16 - Timeout waiting for response for request Imp_Address_6
14:06:17 - Timeout waiting for response for request Pa_Address_6
14:06:17 - Timeout waiting for response for request Pb_Address_6
14:06:18 - Timeout waiting for response for request Pc_Address_6
14:06:18 - Timeout waiting for response for request Pt_Address_6
14:06:19 - Timeout waiting for response for request Ua_Address_6
14:06:19 - Sent request Exp_Address_7 to address 7: 07 03 10 28 00 02 40 A5
14:06:19 - Timeout waiting for response for request Ub_Address_6
14:06:20 - Sent request Ia_Address_7 to address 7: 07 03 20 0C 00 02 0F AE
14:06:20 - Timeout waiting for response for request Uc_Address_6
14:06:20 - Sent request Ib_Address_7 to address 7: 07 03 20 0E 00 02 AE 6E
14:06:21 - Sent request Ic_Address_7 to address 7: 07 03 20 10 00 02 CE 68
14:06:21 - Sent request Imp_Address_7 to address 7: 07 03 10 1E 00 02 A0 AB
14:06:22 - Sent request Pa_Address_7 to address 7: 07 03 20 14 00 02 8F A9
14:06:22 - Sent request Pb_Address_7 to address 7: 07 03 20 16 00 02 2E 69
14:06:23 - Sent request Pc_Address_7 to address 7: 07 03 20 18 00 02 4F AA
14:06:24 - Sent request Pt_Address_7 to address 7: 07 03 20 12 00 02 6F A8
14:06:24 - Timeout waiting for response for request Exp_Address_7
14:06:24 - Sent request Ua_Address_7 to address 7: 07 03 20 06 00 02 2F AC
14:06:25 - Timeout waiting for response for request Ia_Address_7
14:06:25 - Sent request Ub_Address_7 to address 7: 07 03 20 08 00 02 4E 6F
14:06:25 - Timeout waiting for response for request Ib_Address_7
14:06:25 - Sent request Uc_Address_7 to address 7: 07 03 20 0A 00 02 EF AF
14:06:26 - Timeout waiting for response for request Ic_Address_7
14:06:26 - Timeout waiting for response for request Imp_Address_7
14:06:27 - Timeout waiting for response for request Pa_Address_7
14:06:27 - Timeout waiting for response for request Pb_Address_7
14:06:28 - Timeout waiting for response for request Pc_Address_7
14:06:29 - Timeout waiting for response for request Pt_Address_7
14:06:29 - Timeout waiting for response for request Ua_Address_7
14:06:29 - Sent request Exp_Address_8 to address 8: 08 03 10 28 00 02 40 5A
14:06:30 - Timeout waiting for response for request Ub_Address_7
14:06:30 - Sent request Ia_Address_8 to address 8: 08 03 20 0C 00 02 0F 51
14:06:30 - Timeout waiting for response for request Uc_Address_7
14:06:30 - Sent request Ib_Address_8 to address 8: 08 03 20 0E 00 02 AE 91
14:06:31 - Sent request Ic_Address_8 to address 8: 08 03 20 10 00 02 CE 97
14:06:32 - Sent request Imp_Address_8 to address 8: 08 03 10 1E 00 02 A0 54
14:06:32 - Sent request Pa_Address_8 to address 8: 08 03 20 14 00 02 8F 56
14:06:33 - Sent request Pb_Address_8 to address 8: 08 03 20 16 00 02 2E 96
14:06:33 - Sent request Pc_Address_8 to address 8: 08 03 20 18 00 02 4F 55
14:06:34 - Sent request Pt_Address_8 to address 8: 08 03 20 12 00 02 6F 57
14:06:34 - Timeout waiting for response for request Exp_Address_8
14:06:34 - Sent request Ua_Address_8 to address 8: 08 03 20 06 00 02 2F 53
14:06:35 - Timeout waiting for response for request Ia_Address_8
14:06:35 - Sent request Ub_Address_8 to address 8: 08 03 20 08 00 02 4E 90
14:06:35 - Timeout waiting for response for request Ib_Address_8
14:06:36 - Sent request Uc_Address_8 to address 8: 08 03 20 0A 00 02 EF 50
14:06:36 - Timeout waiting for response for request Ic_Address_8
14:06:37 - Timeout waiting for response for request Imp_Address_8
14:06:37 - Timeout waiting for response for request Pa_Address_8
14:06:38 - Timeout waiting for response for request Pb_Address_8
14:06:38 - Timeout waiting for response for request Pc_Address_8
14:06:39 - Timeout waiting for response for request Pt_Address_8
14:06:39 - Timeout waiting for response for request Ua_Address_8
14:06:40 - Sent request Exp_Address_9 to address 9: 09 03 10 28 00 02 41 8B
14:06:40 - Timeout waiting for response for request Ub_Address_8
14:06:40 - Sent request Ia_Address_9 to address 9: 09 03 20 0C 00 02 0E 80
14:06:41 - Timeout waiting for response for request Uc_Address_8
14:06:41 - Sent request Ib_Address_9 to address 9: 09 03 20 0E 00 02 AF 40
14:06:41 - Sent request Ic_Address_9 to address 9: 09 03 20 10 00 02 CF 46
14:06:42 - Sent request Imp_Address_9 to address 9: 09 03 10 1E 00 02 A1 85
14:06:42 - Sent request Pa_Address_9 to address 9: 09 03 20 14 00 02 8E 87
14:06:43 - Sent request Pb_Address_9 to address 9: 09 03 20 16 00 02 2F 47
14:06:44 - Sent request Pc_Address_9 to address 9: 09 03 20 18 00 02 4E 84
14:06:44 - Sent request Pt_Address_9 to address 9: 09 03 20 12 00 02 6E 86
14:06:45 - Timeout waiting for response for request Exp_Address_9
14:06:45 - Sent request Ua_Address_9 to address 9: 09 03 20 06 00 02 2E 82
14:06:45 - Timeout waiting for response for request Ia_Address_9
14:06:45 - Sent request Ub_Address_9 to address 9: 09 03 20 08 00 02 4F 41
14:06:46 - Timeout waiting for response for request Ib_Address_9
14:06:46 - Sent request Uc_Address_9 to address 9: 09 03 20 0A 00 02 EE 81
14:06:46 - Timeout waiting for response for request Ic_Address_9
14:06:47 - Timeout waiting for response for request Imp_Address_9
14:06:47 - Timeout waiting for response for request Pa_Address_9
14:06:48 - Timeout waiting for response for request Pb_Address_9
14:06:49 - Timeout waiting for response for request Pc_Address_9
14:06:49 - Timeout waiting for response for request Pt_Address_9
14:06:50 - Timeout waiting for response for request Ua_Address_9
14:06:50 - Sent request Exp_Address_10 to address 10: 0A 03 10 28 00 02 41 B8
14:06:50 - Address 10, Request Exp_Address_10, Value: 398.6
14:06:50 - Timeout waiting for response for request Ub_Address_9
14:06:50 - Sent request Ia_Address_10 to address 10: 0A 03 20 0C 00 02 0E B3
14:06:51 - Address 10, Request Ia_Address_10, Value: 0.509
14:06:51 - Timeout waiting for response for request Uc_Address_9
14:06:51 - Sent request Ib_Address_10 to address 10: 0A 03 20 0E 00 02 AF 73
14:06:51 - Address 10, Request Ib_Address_10, Value: 0.507
14:06:52 - Sent request Ic_Address_10 to address 10: 0A 03 20 10 00 02 CF 75
14:06:52 - Address 10, Request Ic_Address_10, Value: 0.447
14:06:52 - Sent request Imp_Address_10 to address 10: 0A 03 10 1E 00 02 A1 B6
14:06:52 - Address 10, Request Imp_Address_10, Value: 1095.2
14:06:53 - Sent request Pa_Address_10 to address 10: 0A 03 20 14 00 02 8E B4
14:06:53 - Address 10, Request Pa_Address_10, Value: 2.04
14:06:53 - Sent request Pb_Address_10 to address 10: 0A 03 20 16 00 02 2F 74
14:06:53 - Address 10, Request Pb_Address_10, Value: -1.532
14:06:54 - Sent request Pc_Address_10 to address 10: 0A 03 20 18 00 02 4E B7
14:06:54 - Address 10, Request Pc_Address_10, Value: -0.432
14:06:54 - Sent request Pt_Address_10 to address 10: 0A 03 20 12 00 02 6E B5
14:06:55 - Address 10, Request Pt_Address_10, Value: 0.014
14:06:55 - Timeout waiting for response for request Exp_Address_10
14:06:55 - Sent request Ua_Address_10 to address 10: 0A 03 20 06 00 02 2E B1
14:06:55 - Address 10, Request Ua_Address_10, Value: 4538
14:06:55 - Timeout waiting for response for request Ia_Address_10
14:06:55 - Sent request Ub_Address_10 to address 10: 0A 03 20 08 00 02 4F 72
14:06:56 - Address 10, Request Ub_Address_10, Value: 4686
14:06:56 - Timeout waiting for response for request Ib_Address_10
14:06:56 - Sent request Uc_Address_10 to address 10: 0A 03 20 0A 00 02 EE B2
14:06:56 - Address 10, Request Uc_Address_10, Value: 4660
14:06:57 - Timeout waiting for response for request Ic_Address_10
14:06:57 - Timeout waiting for response for request Imp_Address_10
14:06:58 - Timeout waiting for response for request Pa_Address_10
14:06:58 - Timeout waiting for response for request Pb_Address_10
14:06:59 - Timeout waiting for response for request Pc_Address_10
14:06:59 - Timeout waiting for response for request Pt_Address_10
14:07:00 - Timeout waiting for response for request Ua_Address_10
14:07:00 - Sent request Exp_Address_11 to address 11: 0B 03 10 28 00 02 40 69
14:07:00 - Timeout waiting for response for request Ub_Address_10
14:07:01 - Sent request Ia_Address_11 to address 11: 0B 03 20 0C 00 02 0F 62
14:07:01 - Timeout waiting for response for request Uc_Address_10
14:07:01 - Sent request Ib_Address_11 to address 11: 0B 03 20 0E 00 02 AE A2
14:07:02 - Sent request Ic_Address_11 to address 11: 0B 03 20 10 00 02 CE A4
14:07:02 - Sent request Imp_Address_11 to address 11: 0B 03 10 1E 00 02 A0 67
14:07:03 - Sent request Pa_Address_11 to address 11: 0B 03 20 14 00 02 8F 65
14:07:03 - Sent request Pb_Address_11 to address 11: 0B 03 20 16 00 02 2E A5
14:07:04 - Sent request Pc_Address_11 to address 11: 0B 03 20 18 00 02 4F 66
14:07:05 - Sent request Pt_Address_11 to address 11: 0B 03 20 12 00 02 6F 64
14:07:05 - Timeout waiting for response for request Exp_Address_11
14:07:05 - Sent request Ua_Address_11 to address 11: 0B 03 20 06 00 02 2F 60
14:07:06 - Timeout waiting for response for request Ia_Address_11
14:07:06 - Sent request Ub_Address_11 to address 11: 0B 03 20 08 00 02 4E A3
14:07:06 - Timeout waiting for response for request Ib_Address_11
14:07:06 - Sent request Uc_Address_11 to address 11: 0B 03 20 0A 00 02 EF 63
14:07:07 - Timeout waiting for response for request Ic_Address_11
14:07:07 - Timeout waiting for response for request Imp_Address_11
14:07:08 - Timeout waiting for response for request Pa_Address_11
14:07:08 - Timeout waiting for response for request Pb_Address_11
14:07:09 - Timeout waiting for response for request Pc_Address_11
14:07:10 - Timeout waiting for response for request Pt_Address_11
14:07:10 - Timeout waiting for response for request Ua_Address_11
14:07:10 - Sent request Exp_Address_12 to address 12: 0C 03 10 28 00 02 41 DE
14:07:11 - Timeout waiting for response for request Ub_Address_11
14:07:11 - Sent request Ia_Address_12 to address 12: 0C 03 20 0C 00 02 0E D5
14:07:11 - Timeout waiting for response for request Uc_Address_11
14:07:11 - Sent request Ib_Address_12 to address 12: 0C 03 20 0E 00 02 AF 15
14:07:12 - Sent request Ic_Address_12 to address 12: 0C 03 20 10 00 02 CF 13
14:07:13 - Sent request Imp_Address_12 to address 12: 0C 03 10 1E 00 02 A1 D0
14:07:13 - Sent request Pa_Address_12 to address 12: 0C 03 20 14 00 02 8E D2
14:07:14 - Sent request Pb_Address_12 to address 12: 0C 03 20 16 00 02 2F 12
14:07:14 - Sent request Pc_Address_12 to address 12: 0C 03 20 18 00 02 4E D1
14:07:15 - Sent request Pt_Address_12 to address 12: 0C 03 20 12 00 02 6E D3
14:07:15 - Timeout waiting for response for request Exp_Address_12
14:07:15 - Sent request Ua_Address_12 to address 12: 0C 03 20 06 00 02 2E D7
14:07:16 - Timeout waiting for response for request Ia_Address_12
14:07:16 - Sent request Ub_Address_12 to address 12: 0C 03 20 08 00 02 4F 14
14:07:16 - Timeout waiting for response for request Ib_Address_12
14:07:16 - Sent request Uc_Address_12 to address 12: 0C 03 20 0A 00 02 EE D4
14:07:17 - Timeout waiting for response for request Ic_Address_12
14:07:18 - Timeout waiting for response for request Imp_Address_12
14:07:18 - Timeout waiting for response for request Pa_Address_12
14:07:19 - Timeout waiting for response for request Pb_Address_12
14:07:19 - Timeout waiting for response for request Pc_Address_12
14:07:20 - Timeout waiting for response for request Pt_Address_12
14:07:20 - Timeout waiting for response for request Ua_Address_12
14:07:21 - Timeout waiting for response for request Ub_Address_12
14:07:21 - Sent request Exp_Address_1 to address 1: 01 03 10 28 00 02 40 C3
14:07:21 - Address 1, Request Exp_Address_1, Value: 0
14:07:22 - Timeout waiting for response for request Uc_Address_12
14:07:22 - Sent request Ia_Address_1 to address 1: 01 03 20 0C 00 02 0F C8
14:07:22 - Address 1, Request Ia_Address_1, Value: 0.839
14:07:22 - Sent request Ib_Address_1 to address 1: 01 03 20 0E 00 02 AE 08
14:07:22 - Address 1, Request Ib_Address_1, Value: 0.73
14:07:23 - Sent request Ic_Address_1 to address 1: 01 03 20 10 00 02 CE 0E
14:07:23 - Address 1, Request Ic_Address_1, Value: 0.664
14:07:23 - Sent request Imp_Address_1 to address 1: 01 03 10 1E 00 02 A0 CD
14:07:24 - Address 1, Request Imp_Address_1, Value: 1811.2
14:07:24 - Sent request Pa_Address_1 to address 1: 01 03 20 14 00 02 8F CF
14:07:24 - Address 1, Request Pa_Address_1, Value: 2.318
14:07:24 - Sent request Pb_Address_1 to address 1: 01 03 20 16 00 02 2E 0F
14:07:25 - Address 1, Request Pb_Address_1, Value: 2.174
14:07:25 - Sent request Pc_Address_1 to address 1: 01 03 20 18 00 02 4F CC
14:07:25 - Address 1, Request Pc_Address_1, Value: 1.472
14:07:26 - Sent request Pt_Address_1 to address 1: 01 03 20 12 00 02 6F CE
14:07:26 - Address 1, Request Pt_Address_1, Value: 5.888
14:07:26 - Timeout waiting for response for request Exp_Address_1
14:07:26 - Sent request Ua_Address_1 to address 1: 01 03 20 06 00 02 2F CA
14:07:26 - Address 1, Request Ua_Address_1, Value: 4582
14:07:27 - Timeout waiting for response for request Ia_Address_1
14:07:27 - Sent request Ub_Address_1 to address 1: 01 03 20 08 00 02 4E 09
14:07:27 - Address 1, Request Ub_Address_1, Value: 4468
14:07:27 - Timeout waiting for response for request Ib_Address_1
14:07:27 - Sent request Uc_Address_1 to address 1: 01 03 20 0A 00 02 EF C9
14:07:27 - Address 1, Request Uc_Address_1, Value: 4384
14:07:28 - Timeout waiting for response for request Ic_Address_1
14:07:28 - Timeout waiting for response for request Imp_Address_1
14:07:29 - Timeout waiting for response for request Pa_Address_1
14:07:29 - Timeout waiting for response for request Pb_Address_1
14:07:30 - Timeout waiting for response for request Pc_Address_1
14:07:31 - Timeout waiting for response for request Pt_Address_1
14:07:31 - Timeout waiting for response for request Ua_Address_1
14:07:31 - Sent request Exp_Address_2 to address 2: 02 03 10 28 00 02 40 F0
14:07:32 - Address 2, Request Exp_Address_2, Value: 0
14:07:32 - Timeout waiting for response for request Ub_Address_1
14:07:32 - Sent request Ia_Address_2 to address 2: 02 03 20 0C 00 02 0F FB
14:07:32 - Address 2, Request Ia_Address_2, Value: 0.862
14:07:32 - Timeout waiting for response for request Uc_Address_1
14:07:32 - Sent request Ib_Address_2 to address 2: 02 03 20 0E 00 02 AE 3B
14:07:33 - Address 2, Request Ib_Address_2, Value: 0.848
14:07:33 - Sent request Ic_Address_2 to address 2: 02 03 20 10 00 02 CE 3D
14:07:33 - Address 2, Request Ic_Address_2, Value: 0.86
14:07:34 - Sent request Imp_Address_2 to address 2: 02 03 10 1E 00 02 A0 FE
14:07:34 - Address 2, Request Imp_Address_2, Value: 2004.4
14:07:34 - Sent request Pa_Address_2 to address 2: 02 03 20 14 00 02 8F FC
14:07:34 - Address 2, Request Pa_Address_2, Value: 2.53
14:07:35 - Sent request Pb_Address_2 to address 2: 02 03 20 16 00 02 2E 3C
14:07:35 - Address 2, Request Pb_Address_2, Value: 2.426
14:07:35 - Sent request Pc_Address_2 to address 2: 02 03 20 18 00 02 4F FF
14:07:35 - Address 2, Request Pc_Address_2, Value: 2.358
14:07:36 - Sent request Pt_Address_2 to address 2: 02 03 20 12 00 02 6F FD
14:07:36 - Address 2, Request Pt_Address_2, Value: 7.346
14:07:36 - Timeout waiting for response for request Exp_Address_2
14:07:36 - Sent request Ua_Address_2 to address 2: 02 03 20 06 00 02 2F F9
14:07:37 - Address 2, Request Ua_Address_2, Value: 4608
14:07:37 - Timeout waiting for response for request Ia_Address_2
14:07:37 - Sent request Ub_Address_2 to address 2: 02 03 20 08 00 02 4E 3A
14:07:37 - Address 2, Request Ub_Address_2, Value: 4448
14:07:37 - Timeout waiting for response for request Ib_Address_2
14:07:37 - Sent request Uc_Address_2 to address 2: 02 03 20 0A 00 02 EF FA
14:07:38 - Address 2, Request Uc_Address_2, Value: 4422
14:07:38 - Timeout waiting for response for request Ic_Address_2
14:07:39 - Timeout waiting for response for request Imp_Address_2
14:07:39 - Timeout waiting for response for request Pa_Address_2
14:07:40 - Timeout waiting for response for request Pb_Address_2
14:07:40 - Timeout waiting for response for request Pc_Address_2
14:07:41 - Timeout waiting for response for request Pt_Address_2
14:07:41 - Timeout waiting for response for request Ua_Address_2
14:07:42 - Sent request Exp_Address_3 to address 3: 03 03 10 28 00 02 41 21
14:07:42 - Address 3, Request Exp_Address_3, Value: 1804
14:07:42 - Timeout waiting for response for request Ub_Address_2
14:07:42 - Sent request Ia_Address_3 to address 3: 03 03 20 0C 00 02 0E 2A
14:07:42 - Address 3, Request Ia_Address_3, Value: 0.729
14:07:42 - Timeout waiting for response for request Uc_Address_2
